Freq(Hz)	Zmod(Ohm)	Zphz(Deg)	Zreal(Ohm)	Zimag(Ohm)	Capacity(Ah)	SOH
10000.0	0.014888691206429126	31.277575611375845	0.0127248	0.00772998	1.76801020143072	89.56773370130354
7943.282347242822	0.014134227820385165	25.565852314744816	0.012750343946360177	0.006099600423639764	1.76801020143072	89.56773370130354
6309.57344480193	0.013583157465667692	19.998924911763023	0.012764080006589223	0.004645473961019824	1.76801020143072	89.56773370130354
5011.872336272725	0.013222668040035825	15.216068636872496	0.012759119980213146	0.0034704189123952373	1.76801020143072	89.56773370130354
3981.071705534969	0.013052304113173643	11.21257612092844	0.012803168236293993	0.002538016110256628	1.76801020143072	89.56773370130354
3162.2776601683795	0.012984008841648546	7.577315285932052	0.012870630215945792	0.0017121224968999148	1.76801020143072	89.56773370130354
2511.886431509582	0.013029694132847328	4.719534867618745	0.012985515549512982	0.0010720611498010175	1.76801020143072	89.56773370130354
1995.2623149688789	0.01313401589944138	2.245516088313496	0.013123930362388108	0.0005146119800067893	1.76801020143072	89.56773370130354
1584.893192461114	0.013281746808329458	0.10870176825828382	0.01328172290529575	2.5198164852505373e-05	1.76801020143072	89.56773370130354
1258.9254117941662	0.013501470474232833	-1.5419929170797735	0.013496581200475243	-0.00036331923367639987	1.76801020143072	89.56773370130354
1000.0	0.013742345489240075	-2.978646865324624	0.013723779169567131	-0.0007141042295017678	1.76801020143072	89.56773370130354
794.3282347242813	0.014004396885364957	-4.095793393969491	0.013968630069164486	-0.0010002530248159668	1.76801020143072	89.56773370130354
630.957344480193	0.014290863714118076	-4.9679912957070975	0.014237176266402522	-0.0012375773328893143	1.76801020143072	89.56773370130354
501.18723362727246	0.014589615200717762	-5.703745025566816	0.014517383124613956	-0.0014499858337889769	1.76801020143072	89.56773370130354
398.1071705534973	0.014903877249696754	-6.225425817930626	0.01481598818885871	-0.001616184105115401	1.76801020143072	89.56773370130354
316.22776601683796	0.015218647640671708	-6.6561664093945625	0.015116068122593002	-0.001764006951247712	1.76801020143072	89.56773370130354
251.18864315095797	0.015533404740491063	-6.996972486575212	0.015417721104226406	-0.001892231165635408	1.76801020143072	89.56773370130354
199.52623149688787	0.01585590308789652	-7.270016986555127	0.01572843431142215	-0.002006493669076672	1.76801020143072	89.56773370130354
158.48931924611142	0.01617987193524236	-7.515871996202528	0.016040865237629754	-0.0021163407733738684	1.76801020143072	89.56773370130354
125.89254117941675	0.01650428268650051	-7.728415288608323	0.01635436815870529	-0.0022194569438146548	1.76801020143072	89.56773370130354
100.0	0.016828803328726542	-7.941570391063671	0.01666740637062051	-0.0023251207180609882	1.76801020143072	89.56773370130354
79.43282347242814	0.0171533478768703	-8.156988260376588	0.016979807851672645	-0.0024338177222641214	1.76801020143072	89.56773370130354
63.0957344480193	0.01747400522148309	-8.528913218294782	0.017280762788220695	-0.0025915431575926316	1.76801020143072	89.56773370130354
50.11872336272725	0.017808609505124563	-8.972229698798262	0.017590704173696032	-0.002777354708985872	1.76801020143072	89.56773370130354
39.810717055349734	0.018162900815423853	-9.513771672248993	0.0179130864982885	-0.0030020489895667343	1.76801020143072	89.56773370130354
31.622776601683793	0.018568176585614875	-10.270046924065594	0.018270684272958825	-0.00331048001238967	1.76801020143072	89.56773370130354
25.118864315095795	0.01901200907226139	-11.094915240371853	0.0186566697868704	-0.0036585736875764286	1.76801020143072	89.56773370130354
19.952623149688787	0.01955658603881613	-12.063353098425935	0.019124720113901247	-0.004087191952742026	1.76801020143072	89.56773370130354
15.848931924611142	0.020212919752891096	-13.042589485450724	0.019691478642907743	-0.004561556071421604	1.76801020143072	89.56773370130354
12.589254117941675	0.020951270644104274	-14.000279388239939	0.020328903650191535	-0.005068670238211877	1.76801020143072	89.56773370130354
10.0	0.02192831544539928	-14.841343594665183	0.021196760788988866	-0.005616791818050647	1.76801020143072	89.56773370130354
7.943282347242813	0.0230001796547637	-15.477289343100374	0.022166108139055094	-0.006137745035362872	1.76801020143072	89.56773370130354
6.309573444801933	0.024223194663709625	-15.829609149380877	0.023304582251702476	-0.006607541584402213	1.76801020143072	89.56773370130354
5.011872336272722	0.025551376079744427	-15.704187448530103	0.024597593472433614	-0.0069160114902613486	1.76801020143072	89.56773370130354
3.981071705534973	0.026910816066998588	-15.356968942675108	0.025949953912379288	-0.0071268445568302	1.76801020143072	89.56773370130354
3.1622776601683795	0.028240288225310325	-14.452118336494612	0.027346667879797594	-0.007047952533938316	1.76801020143072	89.56773370130354
2.5118864315095797	0.029491363178869124	-13.416375810558842	0.028686532145753892	-0.006842760816993841	1.76801020143072	89.56773370130354
1.9952623149688797	0.03067200842317576	-12.266050830407185	0.029971816426342845	-0.0065163119029839275	1.76801020143072	89.56773370130354
1.5848931924611134	0.03163241933105032	-11.010509665545726	0.03105013504401551	-0.006041445727953385	1.76801020143072	89.56773370130354
1.2589254117941675	0.03250533693570617	-9.812963767635773	0.03202976310448075	-0.005539964329725139	1.76801020143072	89.56773370130354
1.0	0.033216124196244944	-8.683923228700671	0.03283534419975741	-0.005015085034555887	1.76801020143072	89.56773370130354
0.7943282347242815	0.033854456478379064	-7.693870833331736	0.033549682651437616	-0.004532440560480389	1.76801020143072	89.56773370130354
0.6309573444801934	0.03443526997125066	-6.810514899969396	0.034192286508450395	-0.004083547638629738	1.76801020143072	89.56773370130354
0.5011872336272722	0.034864757403410426	-6.119166195027515	0.03466610993130344	-0.003716467547207592	1.76801020143072	89.56773370130354
0.3981071705534972	0.035274827239774036	-5.488946810650334	0.03511308051211772	-0.0033741686006249195	1.76801020143072	89.56773370130354
0.31622776601683794	0.035667400203699046	-4.911381320345551	0.03553644053804852	-0.003053658654233125	1.76801020143072	89.56773370130354
0.251188643150958	0.035985191510959164	-4.67598821597504	0.035865419783915546	-0.002933542534876042	1.76801020143072	89.56773370130354
0.19952623149688797	0.03628287694371064	-4.54228273725043	0.036168918289923996	-0.0028734141799000605	1.76801020143072	89.56773370130354
0.15848931924611134	0.03682600721518361	-4.462150044649647	0.03671438562735722	-0.002865082096286444	1.76801020143072	89.56773370130354
0.12589254117941673	0.03722944325242389	-4.556043535283038	0.03711180240104273	-0.002957290555797567	1.76801020143072	89.56773370130354
0.1	0.03758918736655663	-4.701664065907726	0.0374627	-0.00308109	1.76801020143072	89.56773370130354
