Freq(Hz)	Zmod(Ohm)	Zphz(Deg)	Zreal(Ohm)	Zimag(Ohm)	Capacity(Ah)	SOH
10000.0	0.015178285311341988	29.834099273753164	0.0131667	0.00755105	1.64994119108968	83.58731166914465
7943.282347242822	0.014475477366033053	24.381661945065947	0.013184493962634396	0.005975664308157914	1.64994119108968	83.58731166914465
6309.57344480193	0.013960692444550834	19.08862246914123	0.013193048008071797	0.004565568725586279	1.64994119108968	83.58731166914465
5011.872336272725	0.013622532493756763	14.527703281195713	0.013186971975761104	0.0034171862187990475	1.64994119108968	83.58731166914465
3981.071705534969	0.01346319917436728	10.745553765236913	0.013227120217209676	0.0025101838116295136	1.64994119108968	83.58731166914465
3162.2776601683795	0.013398429739909826	7.321097992564428	0.01328920019928079	0.0017073598211084522	1.64994119108968	83.58731166914465
2511.886431509582	0.013438701257438353	4.610300909224927	0.013395219584278036	0.0010801776592993077	1.64994119108968	83.58731166914465
1995.2623149688789	0.013538590085905399	2.248271085433334	0.013528168356265245	0.0005311143367672241	1.64994119108968	83.58731166914465
1584.893192461114	0.013683373479202617	0.19422987816119064	0.01368329485620824	4.6385875119811697e-05	1.64994119108968	83.58731166914465
1258.9254117941662	0.013886125828268994	-1.3412495682554821	0.013882321261646024	-0.0003250337012834213	1.64994119108968	83.58731166914465
1000.0	0.01411102855824207	-2.68828257858303	0.01409549919774591	-0.0006618378486212806	1.64994119108968	83.58731166914465
794.3282347242813	0.014362988559124568	-3.761852859766365	0.01433204165962586	-0.0009423493069409515	1.64994119108968	83.58731166914465
630.957344480193	0.014638865752298906	-4.5872963513156595	0.014591972132364475	-0.0011707859762264054	1.64994119108968	83.58731166914465
501.18723362727246	0.014925582940452995	-5.278577322809626	0.014862286014876323	-0.0013731280072714167	1.64994119108968	83.58731166914465
398.1071705534973	0.01521742184186599	-5.772934517970644	0.015140244175800167	-0.0015306644996370869	1.64994119108968	83.58731166914465
316.22776601683796	0.015513420808680277	-6.198069767446733	0.015422738686440314	-0.0016749198777766985	1.64994119108968	83.58731166914465
251.18864315095797	0.015813424943966085	-6.554263776745681	0.015710071520363623	-0.001805010050805407	1.64994119108968	83.58731166914465
199.52623149688787	0.016115059619195213	-6.830454712232749	0.01600068188748322	-0.0019165922012213583	1.64994119108968	83.58731166914465
158.48931924611142	0.01641747130525562	-7.086563961365821	0.016292056526841653	-0.0020254032154334053	1.64994119108968	83.58731166914465
125.89254117941675	0.016720981751563887	-7.332813988220805	0.016584229344109833	-0.0021341433405699098	1.64994119108968	83.58731166914465
100.0	0.01701875452548055	-7.586602362787292	0.01686977982036902	-0.0022468943924525836	1.64994119108968	83.58731166914465
79.43282347242814	0.01731374595000233	-7.847467065119028	0.017151603862428977	-0.002363955111150265	1.64994119108968	83.58731166914465
63.0957344480193	0.017615436604338005	-8.304381485026974	0.017430734295955826	-0.002544230466219716	1.64994119108968	83.58731166914465
50.11872336272725	0.017919408574464005	-8.851279268874812	0.017706007494667792	-0.002757263545137107	1.64994119108968	83.58731166914465
39.810717055349734	0.018227138265798668	-9.523270901834511	0.017975940694913106	-0.0030156467786378823	1.64994119108968	83.58731166914465
31.622776601683793	0.018577837324437275	-10.443592834074106	0.01827007390316043	-0.0033675568631147002	1.64994119108968	83.58731166914465
25.118864315095795	0.018961861184279043	-11.494400074599275	0.01858156561552459	-0.0037785710060580444	1.64994119108968	83.58731166914465
19.952623149688787	0.019431575745399488	-12.907174339080909	0.01894060263109277	-0.004340473236899332	1.64994119108968	83.58731166914465
15.848931924611142	0.019996879390936216	-14.516998175459198	0.019358445351707297	-0.00501256211339188	1.64994119108968	83.58731166914465
12.589254117941675	0.02063944845561832	-16.215358006216295	0.019818387837033012	-0.005763535034426996	1.64994119108968	83.58731166914465
10.0	0.021548189367675143	-18.2884770186816	0.020459760299798985	-0.00676185429449329	1.64994119108968	83.58731166914465
7.943282347242813	0.02262025694851905	-20.370394104234936	0.02120563083608292	-0.007873832945954184	1.64994119108968	83.58731166914465
6.309573444801933	0.023955821416869156	-22.521580113282887	0.022128838639148177	-0.0091758313105391	1.64994119108968	83.58731166914465
5.011872336272722	0.02570697262178834	-24.624343424491062	0.023369158951976245	-0.010711248818631933	1.64994119108968	83.58731166914465
3.981071705534973	0.027703935252290084	-26.482013707335515	0.024797082889288953	-0.012353651631999913	1.64994119108968	83.58731166914465
3.1622776601683795	0.030289919249193616	-27.9167042817588	0.026765056207548748	-0.014181360101535614	1.64994119108968	83.58731166914465
2.5118864315095797	0.03325884235192766	-28.799865315240325	0.02914498338757353	-0.016022500988561037	1.64994119108968	83.58731166914465
1.9952623149688797	0.03658529277291111	-29.250335352226724	0.0319204172311149	-0.017876538005753947	1.64994119108968	83.58731166914465
1.5848931924611134	0.040436930576541096	-28.718551132894834	0.03546280929277546	-0.01943024733543664	1.64994119108968	83.58731166914465
1.2589254117941675	0.044404801125355296	-27.764465838216033	0.03929247870440363	-0.020685441263031894	1.64994119108968	83.58731166914465
1.0	0.04852681293611288	-26.07705471309435	0.043586962275141306	-0.021331392204024118	1.64994119108968	83.58731166914465
0.7943282347242815	0.05251357778451848	-24.00905320669914	0.04797016492120287	-0.02136677629319105	1.64994119108968	83.58731166914465
0.6309573444801934	0.05635587111567484	-21.814432224292716	0.05232035419118462	-0.020941937506246715	1.64994119108968	83.58731166914465
0.5011872336272722	0.05943870722111171	-19.17326973751405	0.056141623941816265	-0.01952121864261349	1.64994119108968	83.58731166914465
0.3981071705534972	0.06227314762084433	-16.782345930051275	0.059620841416932135	-0.017980550140207045	1.64994119108968	83.58731166914465
0.31622776601683794	0.06488887478037471	-14.579852300791051	0.06279930696372579	-0.016334415053465796	1.64994119108968	83.58731166914465
0.251188643150958	0.06660589633932514	-12.645655327077883	0.06499021232042292	-0.014581417273752104	1.64994119108968	83.58731166914465
0.19952623149688797	0.06810050396851099	-10.832542953292347	0.06688699814764987	-0.01279875460978385	1.64994119108968	83.58731166914465
0.15848931924611134	0.06958245360123848	-9.272488276662044	0.0686732335943846	-0.011211816840262427	1.64994119108968	83.58731166914465
0.12589254117941673	0.07047836856487431	-7.944647945614305	0.06980192129563537	-0.00974126372726811	1.64994119108968	83.58731166914465
0.1	0.07121021750422055	-6.699296346964188	0.070724	-0.00830728	1.64994119108968	83.58731166914465
