Freq(Hz)	Zmod(Ohm)	Zphz(Deg)	Zreal(Ohm)	Zimag(Ohm)	Capacity(Ah)	SOH
10000.0	0.01441937751473343	32.49837039407019	0.0121614	0.00774718	1.90781383237784	96.65021228486255
7943.282347242822	0.013633744325951882	26.708670212441934	0.012179069962894784	0.006127743400660568	1.90781383237784	96.65021228486255
6309.57344480193	0.013054439483556292	21.006920637614293	0.012186804010625121	0.0046797647629389354	1.90781383237784	96.65021228486255
5011.872336272725	0.012672654860597373	16.048018385075757	0.012178805968093698	0.0035032651066323165	1.90781383237784	96.65021228486255
3981.071705534969	0.01248810986825128	11.894825524118529	0.012219960224742959	0.0025739969283616196	1.90781383237784	96.65021228486255
3162.2776601683795	0.012408926141122613	8.11604910957328	0.01228464021140079	0.001751874097151638	1.90781383237784	96.65021228486255
2511.886431509582	0.01244687515903445	5.125374757207921	0.01239710755899436	0.001111946669275895	1.90781383237784	96.65021228486255
1995.2623149688789	0.012546188921445345	2.53052838752266	0.012533954360394619	0.0005539355053998731	1.90781383237784	96.65021228486255
1584.893192461114	0.012691037185401394	0.2861703363333896	0.012690878889313771	6.338657595264108e-05	1.90781383237784	96.65021228486255
1258.9254117941662	0.012895311020207852	-1.3982498315261067	0.012891471255982062	-0.00031466675083708534	1.90781383237784	96.65021228486255
1000.0	0.013123893967903243	-2.8589601623206184	0.013107559178188996	-0.0006545878634992562	1.90781383237784	96.65021228486255
794.3282347242813	0.013382271856637493	-3.9880363297490224	0.01334986794385789	-0.0009307125907106684	1.90781383237784	96.65021228486255
630.957344480193	0.01366620592288449	-4.862738990328693	0.013617016252143156	-0.0011584699890598352	1.90781383237784	96.65021228486255
501.18723362727246	0.01396259028839795	-5.590707799093999	0.013896173218185077	-0.0013602563919572405	1.90781383237784	96.65021228486255
398.1071705534973	0.014272100187220142	-6.050025158685831	0.01419260818748619	-0.0015042328910607995	1.90781383237784	96.65021228486255
316.22776601683796	0.01458633148520637	-6.414447451285654	0.014495017841889795	-0.0016295778470570765	1.90781383237784	96.65021228486255
251.18864315095797	0.014905129771582207	-6.684744911339505	0.01480379990138753	-0.0017350510042603382	1.90781383237784	96.65021228486255
199.52623149688787	0.015225131120219483	-6.801833266498795	0.015117972370372238	-0.0018031996662980533	1.90781383237784	96.65021228486255
158.48931924611142	0.015544453447155484	-6.872235392735854	0.015432773415653722	-0.0018599832450524245	1.90781383237784	96.65021228486255
125.89254117941675	0.0158612966054634	-6.8800131502543325	0.015747082416233606	-0.001900032995195361	1.90781383237784	96.65021228486255
100.0	0.016178213926765207	-6.807198841621958	0.016064167607013364	-0.001917583102231074	1.90781383237784	96.65021228486255
79.43282347242814	0.01649520892475727	-6.691823309552863	0.016382831842138627	-0.0019221702067196507	1.90781383237784	96.65021228486255
63.0957344480193	0.01681181437920052	-6.518470399245478	0.01670313122454638	-0.0019085360924743033	1.90781383237784	96.65021228486255
50.11872336272725	0.017122265255837134	-6.324322841075363	0.01701806398106391	-0.001886124552531627	1.90781383237784	96.65021228486255
39.810717055349734	0.01742422325022523	-6.099975346585887	0.017325567121444417	-0.0018515614475392616	1.90781383237784	96.65021228486255
31.622776601683793	0.017707885102325568	-5.859648784492307	0.017615360752180873	-0.0018078330585785593	1.90781383237784	96.65021228486255
25.118864315095795	0.01798554799688944	-5.595796781525824	0.017899838874840167	-0.0017537687998064385	1.90781383237784	96.65021228486255
19.952623149688787	0.018256132694931062	-5.2365904649969535	0.018179937354861144	-0.0016662108954917116	1.90781383237784	96.65021228486255
15.848931924611142	0.018514450869727177	-4.856649622273735	0.018447977289443106	-0.0015674900113662133	1.90781383237784	96.65021228486255
12.589254117941675	0.018764330524953174	-4.464915520331187	0.018707384355405577	-0.0014607774056358328	1.90781383237784	96.65021228486255
10.0	0.01895218793394006	-4.13539429964425	0.018902844496545543	-0.0013667104385351818	1.90781383237784	96.65021228486255
7.943282347242813	0.019134860075336938	-3.8240802537462715	0.01909225681824611	-0.0012761660114806418	1.90781383237784	96.65021228486255
6.309573444801933	0.019311242992356738	-3.536569281448748	0.019274467252574052	-0.0011912254359682023	1.90781383237784	96.65021228486255
5.011872336272722	0.019454910168878518	-3.2463146620533294	0.019423691167225587	-0.001101703734846823	1.90781383237784	96.65021228486255
3.981071705534973	0.01958608104089223	-2.9690633441489056	0.019559789621887837	-0.001014495188695748	1.90781383237784	96.65021228486255
3.1622776601683795	0.019706395430636806	-2.774101931834093	0.019683301815696008	-0.0009537559964904344	1.90781383237784	96.65021228486255
2.5118864315095797	0.01981907096181263	-2.6127462821896454	0.019798468114224806	-0.0009034567612167654	1.90781383237784	96.65021228486255
1.9952623149688797	0.019924328274033808	-2.4829992945172474	0.019905621726134137	-0.0008631806691067529	1.90781383237784	96.65021228486255
1.5848931924611134	0.020044731525214493	-2.506196405277566	0.020025558707523112	-0.0008765046317464307	1.90781383237784	96.65021228486255
1.2589254117941675	0.020169442254556202	-2.5512231573197597	0.020149450828800482	-0.0008977929369452236	1.90781383237784	96.65021228486255
1.0	0.020300205118476362	-2.6081068589196916	0.02027917697478516	-0.0009237473017862415	1.90781383237784	96.65021228486255
0.7943282347242815	0.020432236480911244	-2.6398568572241756	0.020410553221096053	-0.0009410657897755245	1.90781383237784	96.65021228486255
0.6309573444801934	0.020569908875362055	-2.659684225677088	0.020547750430625643	-0.0009545173552232563	1.90781383237784	96.65021228486255
0.5011872336272722	0.02074128127667074	-2.685220627849291	0.020718507200034954	-0.0009717038643907565	1.90781383237784	96.65021228486255
0.3981071705534972	0.020936679659869433	-2.869903464943696	0.020910420772423933	-0.0010482644228304943	1.90781383237784	96.65021228486255
0.31622776601683794	0.021153708026482344	-3.1896866871569793	0.02112093661630394	-0.0011770300419849927	1.90781383237784	96.65021228486255
0.251188643150958	0.021367570247871066	-3.61855449946402	0.02132497062470857	-0.0013485867243233937	1.90781383237784	96.65021228486255
0.19952623149688797	0.021582728692758138	-4.070354055059097	0.021528289358297394	-0.0015319709953600805	1.90781383237784	96.65021228486255
0.15848931924611134	0.021908520637128684	-4.272187905429469	0.021847645877205474	-0.0016320680536423971	1.90781383237784	96.65021228486255
0.12589254117941673	0.022326530566556792	-4.804408107795247	0.02224808448095493	-0.0018699476109472078	1.90781383237784	96.65021228486255
0.1	0.02277581158278229	-5.41952479334746	0.022674	-0.00215112	1.90781383237784	96.65021228486255
