Freq(Hz)	Zmod(Ohm)	Zphz(Deg)	Zreal(Ohm)	Zimag(Ohm)	Capacity(Ah)	SOH
10000.0	0.014439016654969964	31.10656533533084	0.0123628	0.00745965	1.97958180702232	100.28716318601775
7943.282347242822	0.013722671430196206	25.216081753479532	0.012415003890376869	0.005846314187849503	1.97958180702232	100.28716318601775
6309.57344480193	0.013210405444920168	19.466454279470423	0.012455255971666341	0.004402432361711693	1.97958180702232	100.28716318601775
5011.872336272725	0.012887115789436262	14.500828473851136	0.012476584085083474	0.0032268565103176178	1.97958180702232	100.28716318601775
3981.071705534969	0.012760412273417735	10.356158728645699	0.012552536372144206	0.0022938945079464214	1.97958180702232	100.28716318601775
3162.2776601683795	0.012737685568615511	6.608982083176021	0.012653040273166183	0.0014660168793538821	1.97958180702232	100.28716318601775
2511.886431509582	0.012824393884953754	3.650902113655237	0.012798367430144864	0.0008166208664039992	1.97958180702232	100.28716318601775
1995.2623149688789	0.012976956141249356	1.122353848711908	0.012974466462632207	0.00025418635278359975	1.97958180702232	100.28716318601775
1584.893192461114	0.013178032407986182	-1.028885126716766	0.013175907708961059	-0.00023663091698807403	1.97958180702232	100.28716318601775
1258.9254117941662	0.013439461948393489	-2.6990392084015316	0.013424553079493032	-0.0006328602359057138	1.97958180702232	100.28716318601775
1000.0	0.013727804272893333	-4.136778883072077	0.01369203898177869	-0.000990292217641445	1.97958180702232	100.28716318601775
794.3282347242813	0.014050677832693384	-5.226569952496382	0.013992258798403252	-0.0012799379971889413	1.97958180702232	100.28716318601775
630.957344480193	0.014398051222532494	-6.0223446896319475	0.014318589167594499	-0.0015105903668152232	1.97958180702232	100.28716318601775
501.18723362727246	0.014756584590694868	-6.661011737916115	0.014656974854845945	-0.0017116883147193808	1.97958180702232	100.28716318601775
398.1071705534973	0.015123295611254825	-7.072637588661011	0.015008220222152117	-0.0018620944951273793	1.97958180702232	100.28716318601775
316.22776601683796	0.01550149996901371	-7.354099996619287	0.015373984988480674	-0.00198420937990499	1.97958180702232	100.28716318601775
251.18864315095797	0.015891439477810684	-7.5069117151543505	0.015755235674268883	-0.002076149687562306	1.97958180702232	100.28716318601775
199.52623149688787	0.016269894201150454	-7.516963121668651	0.016130073561916564	-0.002128422938184374	1.97958180702232	100.28716318601775
158.48931924611142	0.016643099961962813	-7.471334244418481	0.01650180072702282	-0.002164104690054456	1.97958180702232	100.28716318601775
125.89254117941675	0.017006217946161358	-7.327690091406093	0.016867326779186644	-0.0021690403768656924	1.97958180702232	100.28716318601775
100.0	0.01736743631079068	-7.116100565129433	0.017233657826984057	-0.0021514836536218004	1.97958180702232	100.28716318601775
79.43282347242814	0.017726842414720518	-6.871183176663268	0.017599521833124087	-0.0021207954266555316	1.97958180702232	100.28716318601775
63.0957344480193	0.018056775621919104	-6.5722657974917	0.017938111637097905	-0.0020667115801061156	1.97958180702232	100.28716318601775
50.11872336272725	0.01837916966085557	-6.238819602868228	0.018270320186538173	-0.0019973176271914144	1.97958180702232	100.28716318601775
39.810717055349734	0.018691203437887653	-5.855045735337786	0.018593694456744775	-0.001906728193980931	1.97958180702232	100.28716318601775
31.622776601683793	0.018972031852976166	-5.491468413054494	0.018884958938252656	-0.0018155766386614804	1.97958180702232	100.28716318601775
25.118864315095795	0.019242112649341336	-5.127465245802648	0.019165112231749836	-0.0017197012398596006	1.97958180702232	100.28716318601775
19.952623149688787	0.019497425932902542	-4.721652737014164	0.019431258496139924	-0.00160493341457228	1.97958180702232	100.28716318601775
15.848931924611142	0.019721457581525978	-4.321816794476799	0.019665379838132373	-0.001486177971141148	1.97958180702232	100.28716318601775
12.589254117941675	0.01992335925556413	-3.927311030093849	0.019876574124037795	-0.0013645677403134487	1.97958180702232	100.28716318601775
10.0	0.020088298645166664	-3.6056429050414778	0.020048534651907854	-0.0012633292400063135	1.97958180702232	100.28716318601775
7.943282347242813	0.020243723356871152	-3.2887921413487224	0.02021038311549799	-0.0011613568247202432	1.97958180702232	100.28716318601775
6.309573444801933	0.02038373132497609	-2.972126077612035	0.020356312711132314	-0.0010568990185464684	1.97958180702232	100.28716318601775
5.011872336272722	0.020498582339306744	-2.775034430364504	0.020474544223733668	-0.0009924297212965066	1.97958180702232	100.28716318601775
3.981071705534973	0.020601822469871977	-2.6140359135732543	0.020580384771984032	-0.0009396018929363382	1.97958180702232	100.28716318601775
3.1622776601683795	0.02068473814564461	-2.4186106357631973	0.020666311673582308	-0.0008728997446675931	1.97958180702232	100.28716318601775
2.5118864315095797	0.020764021033214442	-2.236464580676283	0.020748204725487742	-0.0008102901560674752	1.97958180702232	100.28716318601775
1.9952623149688797	0.020839783205385445	-2.0668836414443996	0.02082622497856491	-0.0007516097322841316	1.97958180702232	100.28716318601775
1.5848931924611134	0.02091096281174129	-2.0789742040538193	0.020897198664155524	-0.0007585866495290803	1.97958180702232	100.28716318601775
1.2589254117941675	0.020994219114430734	-2.0922953593609646	0.020980222526194598	-0.0007664848179093385	1.97958180702232	100.28716318601775
1.0	0.021106393353435615	-2.063034986473275	0.02109271275700854	-0.0007598084892131696	1.97958180702232	100.28716318601775
0.7943282347242815	0.021193099046743925	-2.1643655685134395	0.021177979847313913	-0.0008003854020808106	1.97958180702232	100.28716318601775
0.6309573444801934	0.021267359841457598	-2.331477639552486	0.021249754643992307	-0.000865171772638645	1.97958180702232	100.28716318601775
0.5011872336272722	0.021344793413699048	-2.497442720031187	0.021324519434118713	-0.0009300950367481624	1.97958180702232	100.28716318601775
0.3981071705534972	0.021456310022571676	-2.654074699739771	0.021433294099341582	-0.000993551123918196	1.97958180702232	100.28716318601775
0.31622776601683794	0.02159778977215751	-2.8017798745361486	0.021571972192342654	-0.0010557171851906554	1.97958180702232	100.28716318601775
0.251188643150958	0.021688307916098645	-3.166049312291414	0.021655204314317864	-0.00119784238055603	1.97958180702232	100.28716318601775
0.19952623149688797	0.02176427315787294	-3.590861685061704	0.02172154402257043	-0.0013631255870401153	1.97958180702232	100.28716318601775
0.15848931924611134	0.021795159441769185	-3.8787732361228424	0.0217452356339982	-0.0014743480979861469	1.97958180702232	100.28716318601775
0.12589254117941673	0.021966771852631368	-4.473539892062042	0.021899849227446887	-0.0017133795378291644	1.97958180702232	100.28716318601775
0.1	0.022185262553436235	-5.152965938803773	0.0220956	-0.00199257	1.97958180702232	100.28716318601775
