Freq(Hz)	Zmod(Ohm)	Zphz(Deg)	Zreal(Ohm)	Zimag(Ohm)	Capacity(Ah)	SOH
10000.0	0.014515791828570703	31.905947308169086	0.0123227	0.00767198	2.0071308304258	101.68163033096549
7943.282347242822	0.013751811782627564	25.908138574281235	0.012369695901313142	0.006008573092993971	2.0071308304258	101.68163033096549
6309.57344480193	0.013207967279788483	19.99991670547042	0.01241143595560511	0.0045173728187825985	2.0071308304258	101.68163033096549
5011.872336272725	0.012874654152604158	14.846316314915057	0.012444854133313933	0.0032988369389387244	2.0071308304258	101.68163033096549
3981.071705534969	0.012749667859602735	10.526330237156332	0.012535104432661585	0.002329203166848021	2.0071308304258	101.68163033096549
3162.2776601683795	0.012734682066684792	6.618218436183533	0.012649820292744647	0.0014677104281189076	2.0071308304258	101.68163033096549
2511.886431509582	0.012829973683755042	3.534924463358329	0.012805563389302003	0.0007910568932858732	2.0071308304258	101.68163033096549
1995.2623149688789	0.012993825685534234	0.9022940887905524	0.012992214487123663	0.0002046183438092319	2.0071308304258	101.68163033096549
1584.893192461114	0.013207900472647641	-1.3341555612089693	0.013204319905311106	-0.0003075235496196735	2.0071308304258	101.68163033096549
1258.9254117941662	0.013490071487670428	-3.024151827554583	0.013471285010619265	-0.0007116943902570321	2.0071308304258	101.68163033096549
1000.0	0.01379992158406768	-4.491637174577449	0.013757538918691867	-0.001080721345720365	2.0071308304258	101.68163033096549
794.3282347242813	0.014144977124955497	-5.645850647750084	0.014076359715280776	-0.0013915728624598821	2.0071308304258	101.68163033096549
630.957344480193	0.014520338194746222	-6.495040995392731	0.014427141579214884	-0.0016425002718706086	2.0071308304258	101.68163033096549
501.18723362727246	0.01491045900303178	-7.174153472368455	0.014793727093035437	-0.0018621026765140451	2.0071308304258	101.68163033096549
398.1071705534973	0.015319332865976268	-7.569640179253776	0.015185832247994701	-0.002018033298621422	2.0071308304258	101.68163033096549
316.22776601683796	0.01573404423385625	-7.821879849311559	0.015587653770472847	-0.0021413075175716065	2.0071308304258	101.68163033096549
251.18864315095797	0.016154461372550197	-7.933691987014723	0.015999838454994118	-0.0022297514774763283	2.0071308304258	101.68163033096549
199.52623149688787	0.016567586304413934	-7.858594208476949	0.016411992335793248	-0.0022652645593987043	2.0071308304258	101.68163033096549
158.48931924611142	0.01697594690958703	-7.711292692073906	0.01682242955975051	-0.0022778580255032755	2.0071308304258	101.68163033096549
125.89254117941675	0.01737389075755642	-7.431603343365696	0.017227949556553122	-0.00224718360005706	2.0071308304258	101.68163033096549
100.0	0.017747144562715297	-7.07066736150321	0.017612179050223796	-0.00218455698776049	2.0071308304258	101.68163033096549
79.43282347242814	0.018106468546429683	-6.6713874471637356	0.017983865829396043	-0.0021035144527976933	2.0071308304258	101.68163033096549
63.0957344480193	0.01843841622075305	-6.21578909901324	0.018330019807712435	-0.001996388383706691	2.0071308304258	101.68163033096549
50.11872336272725	0.018745124727445252	-5.738005813428409	0.0186512017105763	-0.0018741333460763274	2.0071308304258	101.68163033096549
39.810717055349734	0.01901675193958449	-5.222376890269914	0.01893781199645918	-0.0017309335973563881	2.0071308304258	101.68163033096549
31.622776601683793	0.0192438984122995	-4.7191727587107195	0.019178659905505602	-0.0015832341367767143	2.0071308304258	101.68163033096549
25.118864315095795	0.01945260418559203	-4.235289064464371	0.019399482623068794	-0.0014366222741432123	2.0071308304258	101.68163033096549
19.952623149688787	0.019626125336999752	-3.794838132921201	0.019583093780771277	-0.0012989356093128868	2.0071308304258	101.68163033096549
15.848931924611142	0.01977504901685051	-3.398485976038464	0.01974027251140649	-0.001172264814045736	2.0071308304258	101.68163033096549
12.589254117941675	0.019906423422911525	-3.033603340283543	0.01987852792568319	-0.0010534804222547994	2.0071308304258	101.68163033096549
10.0	0.020014974825226108	-2.8195768736718905	0.01999074445662472	-0.0009845574256298895	2.0071308304258	101.68163033096549
7.943282347242813	0.020119093198909515	-2.5985809132865296	0.020098404594998186	-0.0009121643942639028	2.0071308304258	101.68163033096549
6.309573444801933	0.020216444062438936	-2.3549115867921144	0.0201993707580635	-0.000830681351669701	2.0071308304258	101.68163033096549
5.011872336272722	0.020292953074472306	-2.189993546067202	0.02027813121177797	-0.0007754605345541655	2.0071308304258	101.68163033096549
3.981071705534973	0.020360717343840266	-2.0551581310266696	0.020347620648124464	-0.0007301675943074469	2.0071308304258	101.68163033096549
3.1622776601683795	0.020417375346455446	-1.9404112422581115	0.020405667670139415	-0.0006913341983973599	2.0071308304258	101.68163033096549
2.5118864315095797	0.02050366990399752	-1.896031720408996	0.020492444346833547	-0.000678383537553485	2.0071308304258	101.68163033096549
1.9952623149688797	0.020618361872078283	-1.9185642242721184	0.020606803650906055	-0.0006902822473281123	2.0071308304258	101.68163033096549
1.5848931924611134	0.02065965032996473	-1.922330307412931	0.020648023455252698	-0.0006930217512793276	2.0071308304258	101.68163033096549
1.2589254117941675	0.02070535356925812	-1.9531070098000272	0.020693324904716894	-0.0007056704725390629	2.0071308304258	101.68163033096549
1.0	0.020779894780897944	-2.050207290684511	0.020766592770265983	-0.0007434055549471303	2.0071308304258	101.68163033096549
0.7943282347242815	0.020829131525666428	-2.132271633259985	0.02081470934816973	-0.0007749805576442897	2.0071308304258	101.68163033096549
0.6309573444801934	0.020858576757898765	-2.2425218501980932	0.02084260225559352	-0.0008161835457067546	2.0071308304258	101.68163033096549
0.5011872336272722	0.020842306875522108	-2.5948091459232603	0.020820936746896924	-0.0009435829985504626	2.0071308304258	101.68163033096549
0.3981071705534972	0.02087653157261565	-2.7836825878387166	0.020851897450902764	-0.0010138753372347187	2.0071308304258	101.68163033096549
0.31622776601683794	0.02095465467948244	-2.828267598925795	0.020929130131689604	-0.0010339558342392968	2.0071308304258	101.68163033096549
0.251188643150958	0.02096862860119991	-2.9799605725270215	0.02094027436833898	-0.00109008935126638	2.0071308304258	101.68163033096549
0.19952623149688797	0.020962784375152563	-3.1705477961163857	0.020930697199559926	-0.001159415154064615	2.0071308304258	101.68163033096549
0.15848931924611134	0.020865670634567086	-4.036168043636753	0.020813919966204814	-0.0014686547145792146	2.0071308304258	101.68163033096549
0.12589254117941673	0.02094362720672806	-4.605324297168816	0.020876009063177214	-0.0016815963155711895	2.0071308304258	101.68163033096549
0.1	0.021076910883912756	-5.074517312043647	0.0209943	-0.00186428	2.0071308304258	101.68163033096549
