Freq(Hz)	Zmod(Ohm)	Zphz(Deg)	Zreal(Ohm)	Zimag(Ohm)	Capacity(Ah)	SOH
10000.0	0.014466862733934403	32.51789466765309	0.0121988	0.00777685	2.03563687287297	103.12575187320547
7943.282347242822	0.013687525971505625	26.44336838856568	0.012255467881002919	0.006095233731231873	2.03563687287297	103.12575187320547
6309.57344480193	0.013130297192625906	20.45529945361798	0.0123023679582408	0.004588730432998847	2.03563687287297	103.12575187320547
5011.872336272725	0.012783147893849964	15.236650389112038	0.01233380212539919	0.003359493296248586	2.03563687287297	103.12575187320547
3981.071705534969	0.01264437842819073	10.875750542956752	0.012417268399515137	0.0023857391579336354	2.03563687287297	103.12575187320547
3162.2776601683795	0.0126179380178259	6.930936193658734	0.012525730299853493	0.0015226425309403037	2.03563687287297	103.12575187320547
2511.886431509582	0.012713533860741387	3.822197284587625	0.012685255374472156	0.0008474900074001253	2.03563687287297	103.12575187320547
1995.2623149688789	0.01287418029274011	1.1528077363117835	0.01287157447858013	0.00025901477244063984	2.03563687287297	103.12575187320547
1584.893192461114	0.013082505616875885	-1.1303414362390456	0.013079959836816903	-0.0002580772807626255	2.03563687287297	103.12575187320547
1258.9254117941662	0.013361120622358405	-2.834745708383774	0.013344771018095693	-0.0006607804172372977	2.03563687287297	103.12575187320547
1000.0	0.013666934626630524	-4.302520887560672	0.013628418931519521	-0.0010253289792026444	2.03563687287297	103.12575187320547
794.3282347242813	0.014006395027291688	-5.433653522812623	0.013943457528849013	-0.001326308335842417	2.03563687287297	103.12575187320547
630.957344480193	0.014374284535217413	-6.252312245662031	0.014288785485103064	-0.0015654600793691578	2.03563687287297	103.12575187320547
501.18723362727246	0.014755738321917199	-6.896123213282291	0.014648987467319916	-0.0017717165707866014	2.03563687287297	103.12575187320547
398.1071705534973	0.015152878050855927	-7.229530715011012	0.015032412242504622	-0.0019069072855040555	2.03563687287297	103.12575187320547
316.22776601683796	0.015551457169960635	-7.417347708864016	0.015421324456365031	-0.0020076284817260996	2.03563687287297	103.12575187320547
251.18864315095797	0.015951180227732037	-7.462101311072462	0.015816089394104754	-0.002071585608966375	2.03563687287297	103.12575187320547
199.52623149688787	0.016342486559797094	-7.303355353400129	0.016209899962024606	-0.0020775009454398123	2.03563687287297	103.12575187320547
158.48931924611142	0.016723535468763644	-7.076616273647664	0.01659614059008131	-0.0020602805850784577	2.03563687287297	103.12575187320547
125.89254117941675	0.017078714905959913	-6.729603636105495	0.01696104658108794	-0.0020013499726990692	2.03563687287297	103.12575187320547
100.0	0.01740998554607239	-6.333970302191305	0.01730371011925841	-0.0019207323663445826	2.03563687287297	103.12575187320547
79.43282347242814	0.017726804707249036	-5.915597960825326	0.017632405863926306	-0.0018269834642721308	2.03563687287297	103.12575187320547
63.0957344480193	0.017988681952988746	-5.411809823637966	0.01790849822743032	-0.0016965758585775455	2.03563687287297	103.12575187320547
50.11872336272725	0.01823198266706584	-4.916572414063647	0.01816489896653472	-0.0015625740007356927	2.03563687287297	103.12575187320547
39.810717055349734	0.018449045367845942	-4.425552383943764	0.018394038403398906	-0.0014235962205358971	2.03563687287297	103.12575187320547
31.622776601683793	0.0186192458293528	-3.9839296344725317	0.018574253843786713	-0.0012936032623823287	2.03563687287297	103.12575187320547
25.118864315095795	0.01877540618975916	-3.5683602260292764	0.01873900537710091	-0.0011685696673411645	2.03563687287297	103.12575187320547
19.952623149688787	0.018917893351801714	-3.197111510764571	0.01888844910896953	-0.001055073043922436	2.03563687287297	103.12575187320547
15.848931924611142	0.01903358018171346	-2.88749951720049	0.019009414606011986	-0.0009588174333279686	2.03563687287297	103.12575187320547
12.589254117941675	0.019130009387432617	-2.621318588860966	0.01910999216646518	-0.0008749048867731524	2.03563687287297	103.12575187320547
10.0	0.0192127600881809	-2.3827867761901094	0.01919614807498537	-0.0007987798753301173	2.03563687287297	103.12575187320547
7.943282347242813	0.019294581113870227	-2.1790261708409036	0.019280629236832058	-0.0007336188325925634	2.03563687287297	103.12575187320547
6.309573444801933	0.019375136559342667	-2.034105190552821	0.01936292782306527	-0.0006877083771058565	2.03563687287297	103.12575187320547
5.011872336272722	0.019469075528915067	-1.9136492941419447	0.019458217414941675	-0.0006501361268688796	2.03563687287297	103.12575187320547
3.981071705534973	0.019566725014160173	-1.8132254925868503	0.019556927627067844	-0.0006191199959554842	2.03563687287297	103.12575187320547
3.1622776601683795	0.019658237090249324	-1.7880390522779344	0.019648665412659094	-0.0006133783480271045	2.03563687287297	103.12575187320547
2.5118864315095797	0.01974050060938803	-1.7780315911967208	0.019730996159295806	-0.0006124988743690266	2.03563687287297	103.12575187320547
1.9952623149688797	0.019813882208319675	-1.7824051688616351	0.01980429544164538	-0.0006162874533779251	2.03563687287297	103.12575187320547
1.5848931924611134	0.019863232390701348	-1.8102626876503338	0.019853319011128537	-0.0006274752978160768	2.03563687287297	103.12575187320547
1.2589254117941675	0.019917870822234555	-1.844754825629892	0.019907547786204214	-0.000641185800855262	2.03563687287297	103.12575187320547
1.0	0.019990760786100525	-1.8885631964885332	0.01997990208734496	-0.0006588090673351328	2.03563687287297	103.12575187320547
0.7943282347242815	0.02011859034738008	-1.944587095415475	0.020107004297406375	-0.0006826827592494996	2.03563687287297	103.12575187320547
0.6309573444801934	0.020269943453558235	-2.0320637791022764	0.020257196499441903	-0.0007187472389143697	2.03563687287297	103.12575187320547
0.5011872336272722	0.020390414672892175	-2.291967039452422	0.020374102582495508	-0.0008154474173399252	2.03563687287297	103.12575187320547
0.3981071705534972	0.020512054660548687	-2.5612049848275955	0.02049156426876841	-0.0009166134497545192	2.03563687287297	103.12575187320547
0.31622776601683794	0.02063482421074839	-2.8380854360318257	0.02060951447317596	-0.001021706116473134	2.03563687287297	103.12575187320547
0.251188643150958	0.020879382972347788	-3.066773104139063	0.020849480850788922	-0.0011170414309920236	2.03563687287297	103.12575187320547
0.19952623149688797	0.021158289914830552	-3.282306139453924	0.021123580707345272	-0.0012114331266276377	2.03563687287297	103.12575187320547
0.15848931924611134	0.02125190674488771	-4.029278456490685	0.02119937785606857	-0.0014932912673130511	2.03563687287297	103.12575187320547
0.12589254117941673	0.021615236173377506	-4.567291087536849	0.021546596987593702	-0.0017212184884858352	2.03563687287297	103.12575187320547
0.1	0.022063867150841895	-5.024001348884393	0.0219791	-0.0019322	2.03563687287297	103.12575187320547
