EXPLAIN
TAG	GALVEIS
TITLE	LABEL	Galvanostatic EIS 50	Test Identifier
DATE	LABEL	12.6.2024	Date
TIME	LABEL	4:04:43	Time
NOTES	NOTES	1	Notes...
	EIS bei 50%
PSTAT	PSTAT	REF3000-39109	Potentiostat
FREQINIT	QUANT	1,00000E+004	Initial Freq. (Hz)
FREQFINAL	QUANT	1,00000E-003	Final Freq. (Hz)
PTSPERDEC	QUANT	1,00000E+001	Points/decade
IACREQ	QUANT	7,50000E-002	AC Current (A rms)
IDCREQ	QUANT	0,00000E+000	DC Current (A)
AREA	QUANT	1,00000E+000	Sample Area (cm^2)
SPEED	SELECTOR	1	Optimize for:
DRIFTCOR	SELECTOR	0	Drift Correction
ZGUESS	QUANT	1,70000E-002	Estimated Z (ohms)
EOC	QUANT	3,585668	Open Circuit (V)
SEQUENCER	TOGGLE	TRUE	Run as Sequence
PSTATMODEL	IQUANT	5	Pstat Model
PSTATSECTION	LABEL	REF3000-39109	Pstat Section
PSTATSERIALNO	LABEL	39109	Pstat Serial Number
CTRLMODE	IQUANT	0	Control Mode
ELECTROMETER	IQUANT	0	RE=0 or CS=1
IESTAB	IQUANT	0	I/E Stability
CASPEED	IQUANT	4	Control Amp Speed
CONVENTION	IQUANT	1	Current Convention
ICHRANGE	IQUANT	2	Ich Range
ICHRANGEMODE	TOGGLE	F	Ich Auto Range
ICHOFFSETENABLE	TOGGLE	T	Ich Offset Enable
ICHOFFSET	QUANT	0	Ich Offset (V)
ICHFILTER	IQUANT	3	Ich Filter
VCHRANGE	IQUANT	2	Vch Range
VCHRANGEMODE	TOGGLE	F	Vch Auto Range
VCHOFFSETENABLE	TOGGLE	T	Vch Offset Enable
VCHOFFSET	QUANT	0	Vch Offset (V)
VCHFILTER	IQUANT	3	Vch Filter
ACHRANGE	IQUANT	2	Ach Range
ACHOFFSETENABLE	TOGGLE	F	Ach Offset Enable
ACHOFFSET	QUANT	0	Ach Offset (V)
ACHFILTER	IQUANT	1	Ach Filter
IERANGELOWERLIMIT	IQUANT	2	I/E Range Lower Limit
IERANGEMODE	TOGGLE	F	I/E AutoRange
IERANGE	IQUANT	11	I/E Range
POSFEEDENABLE	TOGGLE	F	Positive Feedback IR Comp
POSFEEDRESISTANCE	QUANT	0	Positive Feedback Resistance (ohm)
ACHSELECT	IQUANT	4	Ach Select
SENSECABLEID	IQUANT	12	Sense Cable ID
PWRCABLEID	IQUANT	12	Power Cable ID
DCCALDATE	LABEL	1/2/2024	DC Calibration Date
ACCALDATE	LABEL	1/2/2024	AC Calibration Date
THERMOSELECT	IQUANT	1	Thermo Select
FRAMEWORKVERSION	LABEL	7.8.4	Framework Version
INSTRUMENTVERSION	LABEL	4.42	Instrument Version
COMPLIANCEVOLTAGE	IQUANT	0	Compliance Voltage
ZCURVE	TABLE
	Pt	Time	Freq	Zreal	Zimag	Zsig	Zmod	Zphz	Idc	Vdc	IERange
	#	s	Hz	ohm	ohm	V	ohm	°	A	V	#
	0	5	10078,13	0,0145262	0,0120904	1	0,0188994	39,77113	-0,0001094	3,585707	11
	1	6	8015,625	0,0143246	0,0094997	1	0,0171883	33,5512	-0,0001084	3,585706	11
	2	8	6328,125	0,0142428	0,0073331	1	0,0160197	27,24228	-0,0001083	3,585709	11
	3	10	5015,625	0,0142188	0,0055929	1	0,0152792	21,47198	-0,0001077	3,585712	11
	4	11	3984,375	0,0142266	0,0041823	1	0,0148286	16,38202	-0,0001071	3,585713	11
	5	13	3170,956	0,0142868	0,0030396	1	0,0146065	12,01108	-0,0001068	3,585715	11
	6	15	2527,573	0,0143993	0,0020857	1	0,0145496	8,241813	-0,0001071	3,585716	11
	7	16	1976,103	0,0145808	0,001218	1	0,0146316	4,77493	-0,0001071	3,585722	11
	8	18	1577,524	0,0147527	0,0005574	1	0,0147633	2,16367	-0,000108	3,585722	11
	9	20	1265,625	0,0149767	3,92781E-005	1	0,0149768	0,1502642	-0,0001095	3,585723	11
	10	21	998,264	0,0152617	-0,0004217	1	0,0152675	-1,582859	-0,0001076	3,585724	11
	11	23	796,875	0,0155185	-0,0008276	1	0,0155405	-3,052674	-0,0001071	3,585724	11
	12	24	627,7902	0,0158311	-0,0011435	1	0,0158724	-4,131499	-0,0001063	3,585726	11
	13	26	505,5147	0,016122	-0,0013894	1	0,0161817	-4,925788	-0,0001036	3,585736	11
	14	27	397,9953	0,0164618	-0,0016139	1	0,0165408	-5,59922	-0,000105	3,585735	11
	15	29	315,5048	0,0168044	-0,0017847	1	0,0168989	-6,062169	-0,0001052	3,585737	11
	16	30	252,4038	0,0171196	-0,0019258	1	0,0172276	-6,418376	-0,0001044	3,585737	11
	17	32	198,6229	0,017464	-0,0020482	1	0,0175837	-6,689204	-0,0001054	3,585736	11
	18	33	158,3615	0,0177885	-0,0021542	1	0,0179184	-6,904852	-0,0001054	3,585747	11
	19	35	125,558	0,0181092	-0,0022636	1	0,0182501	-7,124753	-0,0001029	3,585741	11
	20	36	100,4464	0,0184089	-0,0023632	1	0,01856	-7,315101	-0,0001035	3,585736	11
	21	38	79,00281	0,018735	-0,0024995	1	0,018901	-7,599087	-0,0001047	3,585738	11
	22	39	63,3446	0,0190155	-0,0026318	1	0,0191967	-7,879932	-0,0001048	3,585759	11
	23	41	50,22321	0,0193138	-0,002817	1	0,0195182	-8,298316	-0,0001067	3,585746	11
	24	43	38,42213	0,0196461	-0,0030874	1	0,0198872	-8,931017	-0,0001061	3,585764	11
	25	44	31,25	0,0199232	-0,0033638	1	0,0202052	-9,58334	-0,0001019	3,585776	11
	26	46	24,93351	0,0202151	-0,0037667	1	0,020563	-10,5549	-0,0001036	3,585719	11
	27	47	19,86229	0,0207139	-0,0042154	1	0,0211385	-11,50284	-0,0000973	3,585922	11
	28	49	15,625	0,0211012	-0,0048541	1	0,0216523	-12,95498	-0,0000982	3,585901	11
	29	50	12,40079	0,0215665	-0,0055939	1	0,0222802	-14,54099	-0,0000978	3,585912	11
	30	51	9,93114	0,0221069	-0,0064651	1	0,0230328	-16,30131	-0,0000965	3,585922	11
	31	53	7,944915	0,0227109	-0,0075115	1	0,0239208	-18,30136	-0,0000973	3,585899	11
	32	55	6,317385	0,0233932	-0,0087862	1	0,0249888	-20,58562	-0,0000975	3,585844	11
	33	57	5,008013	0,0243703	-0,010295	1	0,0264556	-22,90119	-0,0000976	3,585837	11
	34	60	3,945707	0,0256428	-0,0120892	1	0,0283496	-25,24136	-0,0000976	3,58583	11
	35	63	3,158693	0,0271949	-0,0139775	1	0,0305767	-27,20207	-0,0000967	3,585848	11
	36	66	2,504006	0,0290673	-0,0160636	1	0,0332107	-28,92661	-0,0000962	3,585829	11
	37	70	1,998082	0,0315466	-0,0183012	1	0,0364708	-30,11936	-0,000096	3,585847	11
	38	74	1,584686	0,0346044	-0,0207585	1	0,0403532	-30,95867	-0,0000961	3,585835	11
	39	78	1,266892	0,0381387	-0,0230565	1	0,0445664	-31,15481	-0,0000966	3,585817	11
	40	84	0,999041	0,0426707	-0,0250978	1	0,0495044	-30,46294	-0,0000973	3,585829	11
	41	89	0,7923428	0,0475593	-0,0266532	1	0,0545186	-29,26716	-0,0000969	3,585818	11
	42	97	0,6334459	0,0527037	-0,0274388	1	0,0594186	-27,50254	-0,0000971	3,585822	11
	43	104	0,5040323	0,0580377	-0,0275002	1	0,0642233	-25,35316	-0,0000958	3,585827	11
	44	114	0,400641	0,0632584	-0,0268064	1	0,0687038	-22,96527	-0,0000973	3,585832	11
	45	125	0,316723	0,0681717	-0,0254425	1	0,0727647	-20,46614	-0,0000977	3,585835	11
	46	142	0,2520161	0,072404	-0,0236932	1	0,0761821	-18,11999	-0,0000968	3,585852	11
	47	163	0,2003205	0,0760656	-0,0217233	1	0,0791068	-15,93863	-0,0000974	3,585874	11
	48	184	0,1588983	0,0791276	-0,0197033	1	0,0815438	-13,98263	-0,0000972	3,585896	11
	49	209	0,1260081	0,0816821	-0,0177964	1	0,0835983	-12,29119	-0,0000971	3,585956	11
	50	239	0,1001603	0,083827	-0,0161082	1	0,0853607	-10,87735	-0,0000981	3,586079	11
	51	276	0,0794492	0,085622	-0,0146694	1	0,0868695	-9,72195	-0,0000982	3,586212	11
	52	315	0,0631739	0,0870018	-0,0135831	1	0,0880558	-8,873626	-0,000098	3,586171	11
	53	363	0,0501337	0,0883443	-0,012739	1	0,089258	-8,205309	-0,0000982	3,586193	11
	54	424	0,0398258	0,0895568	-0,0121764	1	0,0903808	-7,742615	-0,0000976	3,586244	11
	55	501	0,0316296	0,0907321	-0,0118841	1	0,0915071	-7,462143	-0,0000976	3,586326	11
	56	629	0,0251206	0,091909	-0,0118328	1	0,0926676	-7,336155	-0,0000979	3,586434	11
	57	749	0,0199553	0,0930579	-0,0120201	1	0,093831	-7,360002	-0,0000979	3,586563	11
	58	951	0,0158522	0,0942914	-0,0124353	1	0,0951079	-7,512923	-0,0000977	3,586727	11
	59	1141	0,0125907	0,0955816	-0,0130505	1	0,0964684	-7,774987	-0,0000975	3,58688	11
	60	1381	0,0100011	0,0969484	-0,0138704	1	0,0979356	-8,142023	-0,0000977	3,587121	11
	61	1782	0,0079436	0,0983623	-0,014878	1	0,0994812	-8,601171	-0,000098	3,587467	11
	62	2287	0,0063097	0,0998772	-0,0161203	1	0,1011698	-9,168519	-0,0000977	3,587858	11
	63	2922	0,0050123	0,1015048	-0,0176236	1	0,1030234	-9,84969	-0,0000978	3,588321	11
	64	3721	0,0039812	0,1033265	-0,01943	1	0,1051375	-10,64982	-0,0000979	3,588778	11
	65	4476	0,0031623	0,1051364	-0,0215775	1	0,1073278	-11,59798	-0,0000977	3,589338	11
	66	5742	0,0025119	0,1071316	-0,0241485	1	0,1098195	-12,70272	-0,0000975	3,59003	11
	67	7336	0,0019953	0,1092256	-0,0272012	1	0,1125617	-13,98431	-0,0000974	3,590784	11
	68	9341	0,0015849	0,1115599	-0,0308685	1	0,1157518	-15,46672	-0,0000977	3,591702	11
	69	11867	0,0012589	0,114072	-0,0352763	1	0,119402	-17,18401	-0,0000977	3,592682	11
	70	15045	0,001	0,1169447	-0,0405613	1	0,1237792	-19,12868	-0,000098	3,593674	11
