EXPLAIN
TAG	GALVEIS
TITLE	LABEL	Galvanostatic EIS 30	Test Identifier
DATE	LABEL	20.12.2023	Date
TIME	LABEL	10:59:57	Time
NOTES	NOTES	1	Notes...
	EIS bei 30%
PSTAT	PSTAT	REF3000-39109	Potentiostat
FREQINIT	QUANT	1,00000E+004	Initial Freq. (Hz)
FREQFINAL	QUANT	1,00000E-003	Final Freq. (Hz)
PTSPERDEC	QUANT	1,00000E+001	Points/decade
IACREQ	QUANT	7,50000E-002	AC Current (A rms)
IDCREQ	QUANT	0,00000E+000	DC Current (A)
AREA	QUANT	1,00000E+000	Sample Area (cm^2)
SPEED	SELECTOR	1	Optimize for:
DRIFTCOR	SELECTOR	0	Drift Correction
ZGUESS	QUANT	1,70000E-002	Estimated Z (ohms)
EOC	QUANT	3,439449	Open Circuit (V)
SEQUENCER	TOGGLE	TRUE	Run as Sequence
PSTATMODEL	IQUANT	5	Pstat Model
PSTATSECTION	LABEL	REF3000-39109	Pstat Section
PSTATSERIALNO	LABEL	39109	Pstat Serial Number
CTRLMODE	IQUANT	0	Control Mode
ELECTROMETER	IQUANT	0	RE=0 or CS=1
IESTAB	IQUANT	0	I/E Stability
CASPEED	IQUANT	4	Control Amp Speed
CONVENTION	IQUANT	1	Current Convention
ICHRANGE	IQUANT	2	Ich Range
ICHRANGEMODE	TOGGLE	F	Ich Auto Range
ICHOFFSETENABLE	TOGGLE	T	Ich Offset Enable
ICHOFFSET	QUANT	0	Ich Offset (V)
ICHFILTER	IQUANT	3	Ich Filter
VCHRANGE	IQUANT	2	Vch Range
VCHRANGEMODE	TOGGLE	F	Vch Auto Range
VCHOFFSETENABLE	TOGGLE	T	Vch Offset Enable
VCHOFFSET	QUANT	0	Vch Offset (V)
VCHFILTER	IQUANT	3	Vch Filter
ACHRANGE	IQUANT	2	Ach Range
ACHOFFSETENABLE	TOGGLE	F	Ach Offset Enable
ACHOFFSET	QUANT	0	Ach Offset (V)
ACHFILTER	IQUANT	1	Ach Filter
IERANGELOWERLIMIT	IQUANT	2	I/E Range Lower Limit
IERANGEMODE	TOGGLE	F	I/E AutoRange
IERANGE	IQUANT	11	I/E Range
POSFEEDENABLE	TOGGLE	F	Positive Feedback IR Comp
POSFEEDRESISTANCE	QUANT	0	Positive Feedback Resistance (ohm)
ACHSELECT	IQUANT	4	Ach Select
SENSECABLEID	IQUANT	12	Sense Cable ID
PWRCABLEID	IQUANT	12	Power Cable ID
DCCALDATE	LABEL	7/6/2023	DC Calibration Date
ACCALDATE	LABEL	7/6/2023	AC Calibration Date
THERMOSELECT	IQUANT	1	Thermo Select
FRAMEWORKVERSION	LABEL	7.8.4	Framework Version
INSTRUMENTVERSION	LABEL	4.42	Instrument Version
COMPLIANCEVOLTAGE	IQUANT	0	Compliance Voltage
ZCURVE	TABLE
	Pt	Time	Freq	Zreal	Zimag	Zsig	Zmod	Zphz	Idc	Vdc	IERange
	#	s	Hz	ohm	ohm	V	ohm	°	A	V	#
	0	5	10078,13	0,0185699	0,0170771	1	0,0252283	42,60206	-0,00014	3,439399	11
	1	6	8015,625	0,0180947	0,013547	1	0,022604	36,8213	-0,0001386	3,439423	11
	2	8	6328,125	0,0177947	0,0105475	1	0,0206858	30,65665	-0,0001381	3,439401	11
	3	10	5015,625	0,0176216	0,0081836	1	0,0194292	24,9104	-0,0001378	3,439407	11
	4	11	3984,375	0,0175715	0,0062787	1	0,0186596	19,66305	-0,000137	3,439409	11
	5	13	3170,956	0,0175581	0,0047053	1	0,0181776	15,00192	-0,0001374	3,439412	11
	6	15	2527,573	0,0176687	0,0034101	1	0,0179948	10,92385	-0,0001373	3,439416	11
	7	16	1976,103	0,0178113	0,0023154	1	0,0179612	7,40669	-0,0001378	3,439422	11
	8	18	1577,524	0,0179624	0,0014785	1	0,0180232	4,705428	-0,000137	3,439422	11
	9	20	1265,625	0,0181657	0,000786	1	0,0181827	2,477582	-0,0001377	3,439429	11
	10	21	998,264	0,0184029	0,0001787	1	0,0184037	0,5562975	-0,0001372	3,439434	11
	11	23	796,875	0,0186461	-0,0002987	1	0,0186485	-0,9177343	-0,0001379	3,439434	11
	12	24	627,7902	0,0189199	-0,0007082	1	0,0189332	-2,143726	-0,0001389	3,439438	11
	13	26	505,5147	0,0191798	-0,0010113	1	0,0192065	-3,018107	-0,0001339	3,439437	11
	14	27	397,9953	0,0195018	-0,0012877	1	0,0195442	-3,777609	-0,0001338	3,439441	11
	15	29	315,5048	0,0198099	-0,0015134	1	0,0198676	-4,368656	-0,0001334	3,439443	11
	16	30	252,4038	0,0201169	-0,0016981	1	0,0201884	-4,825047	-0,0001331	3,439446	11
	17	32	198,6229	0,0204518	-0,0018644	1	0,0205366	-5,208854	-0,0001338	3,439448	11
	18	33	158,3615	0,0207822	-0,0020124	1	0,0208794	-5,530902	-0,0001338	3,439452	11
	19	34	125,558	0,0211122	-0,0021517	1	0,0212215	-5,819289	-0,0001324	3,439454	11
	20	36	100,4464	0,0214431	-0,0022704	1	0,021563	-6,043851	-0,000135	3,439456	11
	21	38	79,00281	0,0217959	-0,002392	1	0,0219268	-6,262874	-0,0001311	3,439462	11
	22	39	63,3446	0,0221337	-0,0025039	1	0,0222749	-6,454132	-0,0001335	3,439462	11
	23	41	50,22321	0,0225031	-0,0026517	1	0,0226588	-6,72051	-0,0001324	3,439466	11
	24	43	38,42213	0,0229355	-0,0028365	1	0,0231103	-7,050129	-0,0001348	3,439466	11
	25	44	31,25	0,023295	-0,0029963	1	0,0234869	-7,329342	-0,0001288	3,439472	11
	26	46	24,93351	0,0237192	-0,0031825	1	0,0239318	-7,641918	-0,0001325	3,439474	11
	27	47	19,86229	0,024283	-0,0033716	1	0,024516	-7,904756	-0,0001262	3,439502	11
	28	49	15,625	0,0248133	-0,0035713	1	0,025069	-8,190081	-0,0001266	3,439501	11
	29	50	12,40079	0,0253822	-0,003778	1	0,0256619	-8,465957	-0,0001273	3,439498	11
	30	52	9,93114	0,0259811	-0,0039308	1	0,0262768	-8,603219	-0,0001269	3,439499	11
	31	53	7,944915	0,0266231	-0,0040484	1	0,0269292	-8,6464	-0,0001268	3,439505	11
	32	55	6,317385	0,0273	-0,0041355	1	0,0276115	-8,613867	-0,0001271	3,439505	11
	33	57	5,008013	0,0280052	-0,0041589	1	0,0283124	-8,446848	-0,0001264	3,43951	11
	34	59	3,945707	0,0287058	-0,0041397	1	0,0290028	-8,206181	-0,0001265	3,439512	11
	35	63	3,158693	0,0293502	-0,0040771	1	0,029632	-7,908515	-0,0001264	3,439523	11
	36	65	2,504006	0,0299654	-0,0039764	1	0,030228	-7,558929	-0,0001218	3,43953	11
	37	69	1,998082	0,0305363	-0,0038967	1	0,0307839	-7,272158	-0,0001225	3,439534	11
	38	74	1,584686	0,0310839	-0,0038244	1	0,0313183	-7,014083	-0,0001226	3,439544	11
	39	80	1,266892	0,0315839	-0,0037676	1	0,0318078	-6,802671	-0,0001231	3,43956	11
	40	85	0,999041	0,0320922	-0,0037238	1	0,0323075	-6,618687	-0,0001225	3,439575	11
	41	90	0,7923428	0,0325537	-0,003735	1	0,0327673	-6,545087	-0,0001235	3,439585	11
	42	98	0,6334459	0,0329977	-0,0037789	1	0,0332134	-6,533099	-0,0001235	3,439603	11
	43	107	0,5040323	0,0334411	-0,0038761	1	0,033665	-6,611629	-0,0001232	3,439624	11
	44	118	0,400641	0,0338967	-0,0040145	1	0,0341336	-6,754288	-0,0001235	3,439651	11
	45	132	0,316723	0,0343712	-0,0042143	1	0,0346286	-6,990218	-0,0001231	3,439681	11
	46	145	0,2520161	0,0348408	-0,0044758	1	0,0351271	-7,320447	-0,0001232	3,439715	11
	47	162	0,2003205	0,0353415	-0,0048154	1	0,035668	-7,758904	-0,0001238	3,439756	11
	48	184	0,1588983	0,0358992	-0,0052311	1	0,0362783	-8,290599	-0,000124	3,439805	11
	49	209	0,1260081	0,0365132	-0,0057072	1	0,0369565	-8,883776	-0,0001236	3,439941	11
	50	239	0,1001603	0,0372304	-0,0062717	1	0,037755	-9,56207	-0,0001235	3,440211	11
	51	275	0,0794492	0,0379639	-0,0069566	1	0,038596	-10,38379	-0,0001236	3,440543	11
	52	327	0,0631739	0,0386283	-0,0077597	1	0,0394	-11,35849	-0,0001239	3,440584	11
	53	376	0,0501337	0,0394151	-0,0086591	1	0,0403551	-12,3904	-0,0001235	3,440693	11
	54	457	0,0398258	0,0403218	-0,0097226	1	0,0414775	-13,55672	-0,000124	3,440886	11
	55	558	0,0316296	0,0413634	-0,0109464	1	0,0427873	-14,82289	-0,0001232	3,441101	11
	56	654	0,0251206	0,0424068	-0,0123883	1	0,0441792	-16,28462	-0,0001244	3,441327	11
	57	775	0,0199553	0,0436619	-0,0140616	1	0,0458704	-17,85146	-0,0001241	3,441631	11
	58	927	0,0158522	0,0450913	-0,0159756	1	0,0478377	-19,50891	-0,0001242	3,442019	11
	59	1117	0,0125907	0,0466396	-0,0182069	1	0,0500674	-21,32436	-0,000124	3,442477	11
	60	1357	0,0100011	0,0483946	-0,0207188	1	0,0526432	-23,17682	-0,0001239	3,443061	11
	61	1658	0,0079436	0,0502469	-0,02356	1	0,0554962	-25,1212	-0,0001236	3,443771	11
	62	2037	0,0063097	0,0522141	-0,026802	1	0,0586913	-27,17187	-0,0001239	3,444659	11
	63	2513	0,0050123	0,0540752	-0,0305593	1	0,0621127	-29,47192	-0,000124	3,445854	11
	64	3313	0,0039812	0,0559134	-0,0348612	1	0,0658909	-31,94296	-0,0001238	3,447212	11
	65	4067	0,0031623	0,0575992	-0,0403853	1	0,0703466	-35,03598	-0,0001238	3,448909	11
	66	5333	0,0025119	0,059074	-0,0469373	1	0,0754509	-38,46891	-0,0001237	3,450983	11
	67	6927	0,0019953	0,0605129	-0,0550681	1	0,0818188	-42,30289	-0,0001241	3,453156	11
	68	8432	0,0015849	0,0619085	-0,0650312	1	0,0897871	-46,40919	-0,0001238	3,455451	11
	69	10326	0,0012589	0,0634968	-0,0769339	1	0,099753	-50,46567	-0,0001243	3,457969	11
	70	12710	0,001	0,0655359	-0,0905607	1	0,1117864	-54,10795	-0,0001242	3,460801	11
