EXPLAIN
TAG	GALVEIS
TITLE	LABEL	Galvanostatic EIS 70	Test Identifier
DATE	LABEL	7.6.2024	Date
TIME	LABEL	3:50:12	Time
NOTES	NOTES	1	Notes...
	EIS bei 70%
PSTAT	PSTAT	REF3000-39109	Potentiostat
FREQINIT	QUANT	1,00000E+004	Initial Freq. (Hz)
FREQFINAL	QUANT	1,00000E-003	Final Freq. (Hz)
PTSPERDEC	QUANT	1,00000E+001	Points/decade
IACREQ	QUANT	7,50000E-002	AC Current (A rms)
IDCREQ	QUANT	0,00000E+000	DC Current (A)
AREA	QUANT	1,00000E+000	Sample Area (cm^2)
SPEED	SELECTOR	1	Optimize for:
DRIFTCOR	SELECTOR	0	Drift Correction
ZGUESS	QUANT	1,70000E-002	Estimated Z (ohms)
EOC	QUANT	3,685061	Open Circuit (V)
SEQUENCER	TOGGLE	TRUE	Run as Sequence
PSTATMODEL	IQUANT	5	Pstat Model
PSTATSECTION	LABEL	REF3000-39109	Pstat Section
PSTATSERIALNO	LABEL	39109	Pstat Serial Number
CTRLMODE	IQUANT	0	Control Mode
ELECTROMETER	IQUANT	0	RE=0 or CS=1
IESTAB	IQUANT	0	I/E Stability
CASPEED	IQUANT	4	Control Amp Speed
CONVENTION	IQUANT	1	Current Convention
ICHRANGE	IQUANT	2	Ich Range
ICHRANGEMODE	TOGGLE	F	Ich Auto Range
ICHOFFSETENABLE	TOGGLE	T	Ich Offset Enable
ICHOFFSET	QUANT	0	Ich Offset (V)
ICHFILTER	IQUANT	3	Ich Filter
VCHRANGE	IQUANT	2	Vch Range
VCHRANGEMODE	TOGGLE	F	Vch Auto Range
VCHOFFSETENABLE	TOGGLE	T	Vch Offset Enable
VCHOFFSET	QUANT	0	Vch Offset (V)
VCHFILTER	IQUANT	3	Vch Filter
ACHRANGE	IQUANT	2	Ach Range
ACHOFFSETENABLE	TOGGLE	F	Ach Offset Enable
ACHOFFSET	QUANT	0	Ach Offset (V)
ACHFILTER	IQUANT	1	Ach Filter
IERANGELOWERLIMIT	IQUANT	2	I/E Range Lower Limit
IERANGEMODE	TOGGLE	F	I/E AutoRange
IERANGE	IQUANT	11	I/E Range
POSFEEDENABLE	TOGGLE	F	Positive Feedback IR Comp
POSFEEDRESISTANCE	QUANT	0	Positive Feedback Resistance (ohm)
ACHSELECT	IQUANT	4	Ach Select
SENSECABLEID	IQUANT	12	Sense Cable ID
PWRCABLEID	IQUANT	12	Power Cable ID
DCCALDATE	LABEL	1/2/2024	DC Calibration Date
ACCALDATE	LABEL	1/2/2024	AC Calibration Date
THERMOSELECT	IQUANT	1	Thermo Select
FRAMEWORKVERSION	LABEL	7.8.4	Framework Version
INSTRUMENTVERSION	LABEL	4.42	Instrument Version
COMPLIANCEVOLTAGE	IQUANT	0	Compliance Voltage
ZCURVE	TABLE
	Pt	Time	Freq	Zreal	Zimag	Zsig	Zmod	Zphz	Idc	Vdc	IERange
	#	s	Hz	ohm	ohm	V	ohm	°	A	V	#
	0	5	10078,13	0,0142754	0,0117982	1	0,0185199	39,5727	-0,0001089	3,685067	11
	1	7	8015,625	0,0140948	0,0092773	1	0,016874	33,35318	-0,0001091	3,68507	11
	2	9	6328,125	0,0140046	0,0071441	1	0,0157216	27,02742	-0,0001073	3,685074	11
	3	10	5015,625	0,0139851	0,0054379	1	0,0150051	21,24777	-0,0001072	3,685073	11
	4	12	3984,375	0,0140133	0,0040677	1	0,0145917	16,18686	-0,0001079	3,685075	11
	5	14	3170,956	0,0140845	0,0029465	1	0,0143894	11,81595	-0,000109	3,685076	11
	6	15	2527,573	0,0141998	0,0020093	1	0,0143412	8,053864	-0,0001079	3,685079	11
	7	17	1976,103	0,0143609	0,001194	1	0,0144104	4,752774	-0,0001098	3,685085	11
	8	19	1577,524	0,0145421	0,0005206	1	0,0145514	2,050241	-0,0001068	3,685086	11
	9	20	1265,625	0,0147747	5,891641E-006	1	0,0147747	0,0228476	-0,000107	3,685086	11
	10	22	998,264	0,0150194	-0,0004539	1	0,0150263	-1,731116	-0,0001065	3,685084	11
	11	23	796,875	0,0153002	-0,000795	1	0,0153209	-2,974533	-0,0001069	3,68509	11
	12	25	627,7902	0,0156278	-0,0011311	1	0,0156687	-4,139821	-0,0001076	3,685088	11
	13	26	505,5147	0,0158729	-0,001367	1	0,0159316	-4,922143	-0,0001041	3,685096	11
	14	28	397,9953	0,0162002	-0,0015842	1	0,0162775	-5,585028	-0,0001045	3,685102	11
	15	29	315,5048	0,0165264	-0,0017541	1	0,0166192	-6,058595	-0,0001054	3,6851	11
	16	31	252,4038	0,0168406	-0,0018882	1	0,0169461	-6,397358	-0,0001036	3,685105	11
	17	32	198,6229	0,0171751	-0,0020069	1	0,0172919	-6,664906	-0,0001041	3,685108	11
	18	34	158,3615	0,0174985	-0,0021217	1	0,0176267	-6,913262	-0,000104	3,68511	11
	19	35	125,558	0,0178089	-0,0022215	1	0,0179469	-7,110526	-0,0001048	3,685099	11
	20	37	100,4464	0,0181093	-0,0023176	1	0,018257	-7,293022	-0,0001057	3,685101	11
	21	38	79,00281	0,0184223	-0,002442	1	0,0185835	-7,550819	-0,0001034	3,685115	11
	22	40	63,3446	0,0187037	-0,0025836	1	0,0188813	-7,864598	-0,0001039	3,685109	11
	23	42	50,22321	0,0189934	-0,0027642	1	0,0191935	-8,280273	-0,0001024	3,685122	11
	24	43	38,42213	0,0193303	-0,0030238	1	0,0195654	-8,890648	-0,0001057	3,68512	11
	25	45	31,25	0,0195973	-0,0033014	1	0,0198734	-9,56243	-0,0001017	3,685108	11
	26	47	24,93351	0,0198792	-0,0036665	1	0,0202145	-10,45007	-0,0001048	3,685127	11
	27	48	19,86229	0,0203528	-0,0041177	1	0,0207652	-11,43746	-0,0000967	3,685249	11
	28	50	15,625	0,0208074	-0,0047181	1	0,0213356	-12,77582	-0,0000962	3,685275	11
	29	51	12,40079	0,021307	-0,0054421	1	0,021991	-14,32789	-0,0000958	3,685288	11
	30	52	9,93114	0,0217478	-0,0063043	1	0,0226432	-16,16594	-0,0000963	3,685237	11
	31	54	7,944915	0,0223888	-0,0073152	1	0,0235536	-18,09394	-0,0000967	3,685234	11
	32	56	6,317385	0,0231612	-0,008528	1	0,0246813	-20,21382	-0,000097	3,685208	11
	33	58	5,008013	0,0242271	-0,0099474	1	0,0261897	-22,3226	-0,0000976	3,685218	11
	34	60	3,945707	0,0255454	-0,0116154	1	0,0280622	-24,45118	-0,0000972	3,685208	11
	35	63	3,158693	0,0270494	-0,0133564	1	0,0301673	-26,27919	-0,0000968	3,685184	11
	36	66	2,504006	0,029087	-0,0151478	1	0,032795	-27,50933	-0,0000961	3,68519	11
	37	69	1,998082	0,0315179	-0,0171794	1	0,0358958	-28,59335	-0,0000967	3,685169	11
	38	74	1,584686	0,034652	-0,0190719	1	0,0395538	-28,82772	-0,0000968	3,685174	11
	39	78	1,266892	0,038177	-0,0206757	1	0,0434162	-28,43884	-0,0000967	3,68517	11
	40	83	0,999041	0,0423817	-0,0219017	1	0,0477063	-27,32864	-0,0000973	3,685171	11
	41	89	0,7923428	0,0468284	-0,0224627	1	0,0519372	-25,62615	-0,0000972	3,685175	11
	42	97	0,6334459	0,0511813	-0,0223504	1	0,0558486	-23,59045	-0,0000961	3,685183	11
	43	104	0,5040323	0,0554093	-0,0215924	1	0,0594679	-21,2903	-0,0000957	3,685194	11
	44	113	0,400641	0,059288	-0,0203217	1	0,0626741	-18,91982	-0,0000973	3,685201	11
	45	127	0,316723	0,0627026	-0,0186706	1	0,0654233	-16,5817	-0,0000974	3,685216	11
	46	141	0,2520161	0,0654837	-0,0169293	1	0,0676367	-14,49512	-0,0000964	3,685232	11
	47	158	0,2003205	0,0677738	-0,0152102	1	0,0694597	-12,64907	-0,0000968	3,685251	11
	48	179	0,1588983	0,0696363	-0,0136031	1	0,0709525	-11,05327	-0,0000972	3,685277	11
	49	204	0,1260081	0,0711569	-0,0122374	1	0,0722015	-9,75818	-0,0000969	3,68534	11
	50	235	0,1001603	0,0724059	-0,0111338	1	0,0732569	-8,741849	-0,0000966	3,685469	11
	51	281	0,0794492	0,0735003	-0,010283	1	0,0742162	-7,964252	-0,0000971	3,685646	11
	52	320	0,0631739	0,0743047	-0,0097602	1	0,074943	-7,483149	-0,0000965	3,685624	11
	53	369	0,0501337	0,0751423	-0,0094805	1	0,075738	-7,190848	-0,000097	3,685662	11
	54	450	0,0398258	0,0759962	-0,0094592	1	0,0765827	-7,095088	-0,0000973	3,685733	11
	55	551	0,0316296	0,0768752	-0,0096747	1	0,0774816	-7,172922	-0,0000975	3,685833	11
	56	679	0,0251206	0,0778199	-0,0101169	1	0,0784748	-7,407148	-0,0000978	3,685944	11
	57	839	0,0199553	0,0788581	-0,0108087	1	0,0795954	-7,804641	-0,0000973	3,686088	11
	58	991	0,0158522	0,0799918	-0,0116851	1	0,0808408	-8,310906	-0,0000975	3,686247	11
	59	1181	0,0125907	0,0812689	-0,0127907	1	0,0822693	-8,944263	-0,0000972	3,686469	11
	60	1421	0,0100011	0,082697	-0,0141126	1	0,0838925	-9,68446	-0,0000975	3,686728	11
	61	1822	0,0079436	0,0842404	-0,0156633	1	0,0856842	-10,53304	-0,0000969	3,687093	11
	62	2327	0,0063097	0,0859789	-0,017483	1	0,0877384	-11,49389	-0,0000972	3,687522	11
	63	2962	0,0050123	0,0878419	-0,0196285	1	0,0900083	-12,59596	-0,0000973	3,687965	11
	64	3562	0,0039812	0,0898628	-0,022247	1	0,0925756	-13,90496	-0,0000972	3,688511	11
	65	4568	0,0031623	0,0919843	-0,0253726	1	0,0954195	-15,42082	-0,0000971	3,689125	11
	66	5517	0,0025119	0,0943136	-0,0291964	1	0,0987293	-17,20081	-0,0000975	3,689818	11
	67	7111	0,0019953	0,0969224	-0,0339001	1	0,10268	-19,27806	-0,000097	3,690726	11
	68	9117	0,0015849	0,0998162	-0,0396055	1	0,1073866	-21,6424	-0,0000969	3,691628	11
	69	11011	0,0012589	0,1030921	-0,0466549	1	0,1131577	-24,34937	-0,0000965	3,692641	11
	70	14190	0,001	0,1068711	-0,0552307	1	0,120299	-27,32981	-0,0000973	3,693774	11
