EXPLAIN
TAG	GALVEIS
TITLE	LABEL	Galvanostatic EIS 70	Test Identifier
DATE	LABEL	29.8.2023	Date
TIME	LABEL	21:45:49	Time
NOTES	NOTES	1	Notes...
	EIS bei 70%
PSTAT	PSTAT	REF3000-39109	Potentiostat
FREQINIT	QUANT	1,00000E+004	Initial Freq. (Hz)
FREQFINAL	QUANT	1,00000E-003	Final Freq. (Hz)
PTSPERDEC	QUANT	1,00000E+001	Points/decade
IACREQ	QUANT	7,50000E-002	AC Current (A rms)
IDCREQ	QUANT	0,00000E+000	DC Current (A)
AREA	QUANT	1,00000E+000	Sample Area (cm^2)
SPEED	SELECTOR	1	Optimize for:
DRIFTCOR	SELECTOR	0	Drift Correction
ZGUESS	QUANT	1,70000E-002	Estimated Z (ohms)
EOC	QUANT	3,822166	Open Circuit (V)
SEQUENCER	TOGGLE	TRUE	Run as Sequence
PSTATMODEL	IQUANT	5	Pstat Model
PSTATSECTION	LABEL	REF3000-39109	Pstat Section
PSTATSERIALNO	LABEL	39109	Pstat Serial Number
CTRLMODE	IQUANT	0	Control Mode
ELECTROMETER	IQUANT	0	RE=0 or CS=1
IESTAB	IQUANT	0	I/E Stability
CASPEED	IQUANT	4	Control Amp Speed
CONVENTION	IQUANT	1	Current Convention
ICHRANGE	IQUANT	2	Ich Range
ICHRANGEMODE	TOGGLE	F	Ich Auto Range
ICHOFFSETENABLE	TOGGLE	T	Ich Offset Enable
ICHOFFSET	QUANT	0	Ich Offset (V)
ICHFILTER	IQUANT	3	Ich Filter
VCHRANGE	IQUANT	2	Vch Range
VCHRANGEMODE	TOGGLE	F	Vch Auto Range
VCHOFFSETENABLE	TOGGLE	T	Vch Offset Enable
VCHOFFSET	QUANT	0	Vch Offset (V)
VCHFILTER	IQUANT	3	Vch Filter
ACHRANGE	IQUANT	2	Ach Range
ACHOFFSETENABLE	TOGGLE	F	Ach Offset Enable
ACHOFFSET	QUANT	0	Ach Offset (V)
ACHFILTER	IQUANT	1	Ach Filter
IERANGELOWERLIMIT	IQUANT	2	I/E Range Lower Limit
IERANGEMODE	TOGGLE	F	I/E AutoRange
IERANGE	IQUANT	11	I/E Range
POSFEEDENABLE	TOGGLE	F	Positive Feedback IR Comp
POSFEEDRESISTANCE	QUANT	0	Positive Feedback Resistance (ohm)
ACHSELECT	IQUANT	4	Ach Select
SENSECABLEID	IQUANT	12	Sense Cable ID
PWRCABLEID	IQUANT	12	Power Cable ID
DCCALDATE	LABEL	7/6/2023	DC Calibration Date
ACCALDATE	LABEL	7/6/2023	AC Calibration Date
THERMOSELECT	IQUANT	1	Thermo Select
FRAMEWORKVERSION	LABEL	7.8.4	Framework Version
INSTRUMENTVERSION	LABEL	4.42	Instrument Version
COMPLIANCEVOLTAGE	IQUANT	0	Compliance Voltage
ZCURVE	TABLE
	Pt	Time	Freq	Zreal	Zimag	Zsig	Zmod	Zphz	Idc	Vdc	IERange
	#	s	Hz	ohm	ohm	V	ohm	°	A	V	#
	0	5	10078,13	0,0128885	0,0123936	1	0,0178806	43,87862	-0,0001355	3,822056	11
	1	6	8015,625	0,0126195	0,0098297	1	0,015996	37,91606	-0,0001342	3,822054	11
	2	8	6328,125	0,0124654	0,0076745	1	0,0146385	31,61897	-0,0001342	3,822058	11
	3	10	5015,625	0,0123714	0,0059345	1	0,0137211	25,62688	-0,0001336	3,822057	11
	4	11	3984,375	0,0123346	0,0045708	1	0,0131542	20,33302	-0,0001347	3,822055	11
	5	12	3170,956	0,0123365	0,0034182	1	0,0128013	15,48705	-0,0001348	3,822056	11
	6	14	2527,573	0,0123876	0,0024715	1	0,0126318	11,2833	-0,000135	3,822055	11
	7	16	1976,103	0,012492	0,0016659	1	0,0126026	7,595934	-0,000136	3,822058	11
	8	18	1577,524	0,0126021	0,0009927	1	0,0126411	4,504185	-0,0001356	3,82206	11
	9	19	1265,625	0,0127478	0,0004643	1	0,0127563	2,0861	-0,0001356	3,822062	11
	10	21	998,264	0,0129347	-5,166499E-006	1	0,0129347	-0,0228856	-0,000135	3,822062	11
	11	22	796,875	0,0131604	-0,0004066	1	0,0131667	-1,769817	-0,0001347	3,822062	11
	12	24	627,7902	0,0133815	-0,0007105	1	0,0134003	-3,039405	-0,000135	3,822064	11
	13	25	505,5147	0,0136548	-0,0009568	1	0,0136883	-4,008096	-0,0001322	3,822058	11
	14	27	397,9953	0,0139638	-0,0011687	1	0,0140126	-4,784387	-0,0001336	3,822058	11
	15	28	315,5048	0,0142646	-0,0013204	1	0,0143256	-5,288582	-0,0001319	3,82206	11
	16	30	252,4038	0,0145628	-0,0014154	1	0,0146314	-5,551366	-0,0001328	3,822063	11
	17	31	198,6229	0,0148861	-0,0014746	1	0,014959	-5,657134	-0,000132	3,822063	11
	18	33	158,3615	0,0151785	-0,0014927	1	0,0152518	-5,616759	-0,0001321	3,822064	11
	19	34	125,558	0,0154568	-0,0014763	1	0,0155272	-5,455792	-0,0001344	3,822062	11
	20	36	100,4464	0,0157227	-0,001442	1	0,0157887	-5,240339	-0,0001302	3,822063	11
	21	37	79,00281	0,0159839	-0,0013764	1	0,016043	-4,921572	-0,0001317	3,822063	11
	22	39	63,3446	0,0161948	-0,001302	1	0,0162471	-4,596311	-0,0001313	3,822062	11
	23	40	50,22321	0,0164004	-0,001215	1	0,0164453	-4,237033	-0,0001327	3,822064	11
	24	42	38,42213	0,016606	-0,0011115	1	0,0166431	-3,829269	-0,0001308	3,822064	11
	25	43	31,25	0,0167336	-0,0010501	1	0,0167665	-3,590752	-0,000138	3,822066	11
	26	45	24,93351	0,0168676	-0,0009642	1	0,0168951	-3,271469	-0,0001316	3,822067	11
	27	47	19,86229	0,016987	-0,0009028	1	0,017011	-3,042173	-0,0001256	3,82207	11
	28	48	15,625	0,0170858	-0,0008372	1	0,0171063	-2,805262	-0,0001254	3,822069	11
	29	50	12,40079	0,0171873	-0,0007933	1	0,0172056	-2,642663	-0,0001262	3,822071	11
	30	51	9,93114	0,0172819	-0,0007664	1	0,0172989	-2,539329	-0,0001259	3,82207	11
	31	53	7,944915	0,0173626	-0,0007539	1	0,0173789	-2,486385	-0,0001264	3,822071	11
	32	54	6,317385	0,0174459	-0,0007476	1	0,0174619	-2,453785	-0,0001258	3,822069	11
	33	57	5,008013	0,0175293	-0,0007503	1	0,0175453	-2,450809	-0,0001257	3,822072	11
	34	60	3,945707	0,0176091	-0,0007805	1	0,0176264	-2,537802	-0,000126	3,822072	11
	35	63	3,158693	0,0177048	-0,000804	1	0,017723	-2,599969	-0,000126	3,822073	11
	36	67	2,504006	0,0177992	-0,0008314	1	0,0178186	-2,674246	-0,0001221	3,822072	11
	37	71	1,998082	0,0179	-0,0008839	1	0,0179218	-2,826895	-0,0001221	3,822073	11
	38	75	1,584686	0,0180079	-0,0009388	1	0,0180324	-2,984147	-0,0001231	3,822073	11
	39	81	1,266892	0,0181017	-0,0010168	1	0,0181302	-3,215113	-0,0001228	3,822076	11
	40	89	0,999041	0,0182441	-0,001113	1	0,018278	-3,490916	-0,0001221	3,822079	11
	41	95	0,7923428	0,0183742	-0,0012171	1	0,0184145	-3,789869	-0,0001226	3,82208	11
	42	103	0,6334459	0,0185115	-0,0013331	1	0,0185595	-4,119143	-0,0001228	3,822085	11
	43	112	0,5040323	0,0186764	-0,0014771	1	0,0187347	-4,522144	-0,0001224	3,822088	11
	44	123	0,400641	0,0188511	-0,0016315	1	0,0189216	-4,946499	-0,0001228	3,822092	11
	45	136	0,316723	0,0190521	-0,0018151	1	0,0191383	-5,442201	-0,0001235	3,822098	11
	46	153	0,2520161	0,019272	-0,0020192	1	0,0193774	-5,981246	-0,0001236	3,822103	11
	47	174	0,2003205	0,0195147	-0,0022578	1	0,0196449	-6,599744	-0,0001235	3,82211	11
	48	201	0,1588983	0,0197587	-0,0025151	1	0,0199181	-7,254125	-0,0001234	3,822118	11
	49	232	0,1260081	0,0200672	-0,0028259	1	0,0202652	-8,015719	-0,0001227	3,822154	11
	50	270	0,1001603	0,0204304	-0,0031628	1	0,0206738	-8,799906	-0,0001231	3,822256	11
	51	317	0,0794492	0,0208155	-0,003564	1	0,0211184	-9,7159	-0,0001233	3,822386	11
	52	368	0,0631739	0,0211198	-0,0040562	1	0,0215058	-10,87154	-0,0001238	3,822325	11
	53	433	0,0501337	0,0215351	-0,0046132	1	0,0220237	-12,09098	-0,0001235	3,822321	11
	54	514	0,0398258	0,0220089	-0,0052683	1	0,0226307	-13,46154	-0,0001231	3,822329	11
	55	615	0,0316296	0,0225755	-0,0060305	1	0,0233671	-14,95607	-0,0001231	3,82235	11
	56	743	0,0251206	0,0232317	-0,0069237	1	0,0242415	-16,5955	-0,0001228	3,82238	11
	57	903	0,0199553	0,0240139	-0,0079559	1	0,0252975	-18,33031	-0,0001231	3,822416	11
	58	1105	0,0158522	0,0249545	-0,0091254	1	0,0265706	-20,0865	-0,0001234	3,822468	11
	59	1295	0,0125907	0,0260537	-0,0104357	1	0,028066	-21,82827	-0,0001233	3,822524	11
	60	1614	0,0100011	0,027354	-0,0118545	1	0,0298122	-23,43055	-0,0001234	3,822598	11
	61	2016	0,0079436	0,028856	-0,013375	1	0,031805	-24,86816	-0,0001234	3,822694	11
	62	2394	0,0063097	0,0305109	-0,0150064	1	0,0340015	-26,18977	-0,0001236	3,822795	11
	63	3030	0,0050123	0,0322978	-0,0167618	1	0,0363882	-27,42826	-0,0001233	3,822937	11
	64	3829	0,0039812	0,034208	-0,0187022	1	0,0389866	-28,66629	-0,0001236	3,823103	11
	65	4584	0,0031623	0,0362007	-0,0208728	1	0,0417871	-29,96708	-0,0001235	3,823296	11
	66	5533	0,0025119	0,0382583	-0,0234218	1	0,0448585	-31,47505	-0,0001233	3,823532	11
	67	7127	0,0019953	0,0403663	-0,0264085	1	0,0482374	-33,19355	-0,0001238	3,823791	11
	68	9133	0,0015849	0,0425233	-0,030018	1	0,052051	-35,21903	-0,0001236	3,824139	11
	69	11658	0,0012589	0,044689	-0,0344138	1	0,0564041	-37,59887	-0,0001232	3,824579	11
	70	14837	0,001	0,0469143	-0,0397979	1	0,061521	-40,3083	-0,0001235	3,825088	11
