EXPLAIN
TAG	GALVEIS
TITLE	LABEL	Galvanostatic EIS 30	Test Identifier
DATE	LABEL	3.4.2024	Date
TIME	LABEL	14:22:35	Time
NOTES	NOTES	1	Notes...
	EIS bei 20%
PSTAT	PSTAT	REF3000-39109	Potentiostat
FREQINIT	QUANT	1,00000E+004	Initial Freq. (Hz)
FREQFINAL	QUANT	1,00000E-003	Final Freq. (Hz)
PTSPERDEC	QUANT	1,00000E+001	Points/decade
IACREQ	QUANT	7,50000E-002	AC Current (A rms)
IDCREQ	QUANT	0,00000E+000	DC Current (A)
AREA	QUANT	1,00000E+000	Sample Area (cm^2)
SPEED	SELECTOR	1	Optimize for:
DRIFTCOR	SELECTOR	0	Drift Correction
ZGUESS	QUANT	1,70000E-002	Estimated Z (ohms)
EOC	QUANT	3,44109	Open Circuit (V)
SEQUENCER	TOGGLE	TRUE	Run as Sequence
PSTATMODEL	IQUANT	5	Pstat Model
PSTATSECTION	LABEL	REF3000-39109	Pstat Section
PSTATSERIALNO	LABEL	39109	Pstat Serial Number
CTRLMODE	IQUANT	0	Control Mode
ELECTROMETER	IQUANT	0	RE=0 or CS=1
IESTAB	IQUANT	0	I/E Stability
CASPEED	IQUANT	4	Control Amp Speed
CONVENTION	IQUANT	1	Current Convention
ICHRANGE	IQUANT	2	Ich Range
ICHRANGEMODE	TOGGLE	F	Ich Auto Range
ICHOFFSETENABLE	TOGGLE	T	Ich Offset Enable
ICHOFFSET	QUANT	0	Ich Offset (V)
ICHFILTER	IQUANT	3	Ich Filter
VCHRANGE	IQUANT	2	Vch Range
VCHRANGEMODE	TOGGLE	F	Vch Auto Range
VCHOFFSETENABLE	TOGGLE	T	Vch Offset Enable
VCHOFFSET	QUANT	0	Vch Offset (V)
VCHFILTER	IQUANT	3	Vch Filter
ACHRANGE	IQUANT	2	Ach Range
ACHOFFSETENABLE	TOGGLE	F	Ach Offset Enable
ACHOFFSET	QUANT	0	Ach Offset (V)
ACHFILTER	IQUANT	1	Ach Filter
IERANGELOWERLIMIT	IQUANT	2	I/E Range Lower Limit
IERANGEMODE	TOGGLE	F	I/E AutoRange
IERANGE	IQUANT	11	I/E Range
POSFEEDENABLE	TOGGLE	F	Positive Feedback IR Comp
POSFEEDRESISTANCE	QUANT	0	Positive Feedback Resistance (ohm)
ACHSELECT	IQUANT	4	Ach Select
SENSECABLEID	IQUANT	12	Sense Cable ID
PWRCABLEID	IQUANT	12	Power Cable ID
DCCALDATE	LABEL	1/2/2024	DC Calibration Date
ACCALDATE	LABEL	1/2/2024	AC Calibration Date
THERMOSELECT	IQUANT	1	Thermo Select
FRAMEWORKVERSION	LABEL	7.8.4	Framework Version
INSTRUMENTVERSION	LABEL	4.42	Instrument Version
COMPLIANCEVOLTAGE	IQUANT	0	Compliance Voltage
ZCURVE	TABLE
	Pt	Time	Freq	Zreal	Zimag	Zsig	Zmod	Zphz	Idc	Vdc	IERange
	#	s	Hz	ohm	ohm	V	ohm	°	A	V	#
	0	5	10078,13	0,0140031	0,0120872	1	0,0184983	40,80027	-0,0001108	3,441115	11
	1	6	8015,625	0,0138104	0,0094672	1	0,0167438	34,43111	-0,0001105	3,441118	11
	2	8	6328,125	0,013739	0,0072922	1	0,0155543	27,9579	-0,0001108	3,44112	11
	3	9	5015,625	0,0137042	0,0055314	1	0,0147784	21,98033	-0,0001103	3,441121	11
	4	11	3984,375	0,013727	0,0041028	1	0,014327	16,64086	-0,0001107	3,441122	11
	5	12	3170,956	0,0138263	0,0029507	1	0,0141377	12,04691	-0,0001115	3,441123	11
	6	14	2527,573	0,0139461	0,0019848	1	0,0140866	8,09977	-0,0001107	3,44113	11
	7	15	1976,103	0,0140923	0,0011139	1	0,0141362	4,519507	-0,0001095	3,441129	11
	8	17	1577,524	0,0143155	0,0004569	1	0,0143228	1,82823	-0,0001098	3,441135	11
	9	19	1265,625	0,0145429	-7,514789E-005	1	0,0145431	-0,2960626	-0,0001104	3,441135	11
	10	20	998,264	0,0148381	-0,0005675	1	0,0148489	-2,190429	-0,0001108	3,441133	11
	11	21	796,875	0,0151207	-0,0009848	1	0,0151527	-3,726211	-0,0001096	3,441136	11
	12	23	627,7902	0,0154669	-0,0013169	1	0,0155228	-4,866651	-0,0001112	3,441136	11
	13	24	505,5147	0,015779	-0,0015353	1	0,0158535	-5,557361	-0,0001055	3,441145	11
	14	25	397,9953	0,0161399	-0,0017692	1	0,0162366	-6,255699	-0,0001058	3,441144	11
	15	27	315,5048	0,0165018	-0,0019404	1	0,0166155	-6,706582	-0,000106	3,441149	11
	16	28	252,4038	0,0168466	-0,00209	1	0,0169758	-7,072172	-0,0001053	3,441147	11
	17	30	198,6229	0,0172251	-0,0022074	1	0,017366	-7,302527	-0,0001072	3,441158	11
	18	31	158,3615	0,0175757	-0,0023222	1	0,0177285	-7,526584	-0,0001069	3,441159	11
	19	32	125,558	0,017942	-0,0024233	1	0,0181049	-7,691915	-0,0001055	3,441156	11
	20	34	100,4464	0,0182774	-0,002513	1	0,0184493	-7,828532	-0,0001085	3,441164	11
	21	35	79,00281	0,0186373	-0,0026237	1	0,0188211	-8,013349	-0,0001056	3,441163	11
	22	37	63,3446	0,0189619	-0,0027413	1	0,0191591	-8,226206	-0,0001051	3,441165	11
	23	39	50,22321	0,0192925	-0,0028901	1	0,0195078	-8,51967	-0,0001053	3,441162	11
	24	40	38,42213	0,0196752	-0,0031181	1	0,0199207	-9,005213	-0,0001081	3,441183	11
	25	42	31,25	0,0199771	-0,0033502	1	0,020256	-9,52001	-0,0001128	3,441189	11
	26	43	24,93351	0,0203201	-0,003635	1	0,0206427	-10,14206	-0,0001047	3,441198	11
	27	45	19,86229	0,0207993	-0,0040363	1	0,0211873	-10,98221	-0,0000995	3,441287	11
	28	46	15,625	0,0212702	-0,004515	1	0,0217442	-11,9843	-0,0000993	3,441303	11
	29	47	12,40079	0,0217313	-0,0051307	1	0,0223288	-13,28402	-0,0000982	3,441292	11
	30	49	9,93114	0,0222726	-0,0058132	1	0,0230187	-14,628	-0,000099	3,441299	11
	31	50	7,944915	0,0229188	-0,006625	1	0,0238571	-16,12258	-0,0000982	3,441304	11
	32	52	6,317385	0,023623	-0,0075956	1	0,0248141	-17,82438	-0,0000982	3,44127	11
	33	54	5,008013	0,0245397	-0,0087194	1	0,0260428	-19,56111	-0,0000984	3,441257	11
	34	56	3,945707	0,0256938	-0,0100163	1	0,0275771	-21,29748	-0,0000987	3,441245	11
	35	60	3,158693	0,0270822	-0,011329	1	0,0293562	-22,70049	-0,0000972	3,441275	11
	36	62	2,504006	0,0286383	-0,0127397	1	0,0313441	-23,98182	-0,0000963	3,441249	11
	37	66	1,998082	0,0305913	-0,0142252	1	0,0337369	-24,93878	-0,0000954	3,441271	11
	38	70	1,584686	0,0328571	-0,0158533	1	0,0364817	-25,75696	-0,0000972	3,441252	11
	39	75	1,266892	0,0354371	-0,0173266	1	0,0394461	-26,0559	-0,0000971	3,441257	11
	40	80	0,999041	0,0384805	-0,0187825	1	0,0428197	-26,01715	-0,0000965	3,441253	11
	41	86	0,7923428	0,0417638	-0,0200021	1	0,0463066	-25,5914	-0,0000965	3,44125	11
	42	93	0,6334459	0,0451711	-0,020925	1	0,0497824	-24,85542	-0,0000967	3,441259	11
	43	101	0,5040323	0,0487694	-0,0216165	1	0,0533453	-23,90479	-0,0000977	3,441261	11
	44	110	0,400641	0,0524208	-0,0220419	1	0,0568664	-22,80582	-0,0000983	3,441253	11
	45	123	0,316723	0,0561692	-0,0221921	1	0,0603943	-21,55865	-0,0000977	3,441266	11
	46	137	0,2520161	0,059717	-0,0221504	1	0,0636927	-20,35101	-0,0000976	3,441273	11
	47	154	0,2003205	0,0631224	-0,0219839	1	0,0668411	-19,20192	-0,0000983	3,441287	11
	48	175	0,1588983	0,0663976	-0,0217364	1	0,0698649	-18,12672	-0,0000977	3,441298	11
	49	206	0,1260081	0,0695471	-0,0214646	1	0,0727841	-17,15199	-0,000098	3,441383	11
	50	245	0,1001603	0,0726018	-0,0211708	1	0,0756255	-16,25678	-0,0000983	3,441614	11
	51	281	0,0794492	0,0754825	-0,0209928	1	0,0783473	-15,54203	-0,0000985	3,441853	11
	52	320	0,0631739	0,0779875	-0,0211879	1	0,0808145	-15,19946	-0,0000977	3,441698	11
	53	384	0,0501337	0,0806719	-0,0214336	1	0,0834707	-14,87909	-0,0000981	3,441722	11
	54	445	0,0398258	0,0833437	-0,021871	1	0,0861656	-14,70397	-0,0000977	3,441769	11
	55	547	0,0316296	0,0860289	-0,0225017	1	0,0889229	-14,6579	-0,0000978	3,441859	11
	56	674	0,0251206	0,0887344	-0,023327	1	0,0917493	-14,729	-0,0000983	3,441975	11
	57	834	0,0199553	0,091492	-0,0243493	1	0,0946766	-14,90303	-0,0000976	3,442139	11
	58	1036	0,0158522	0,0943991	-0,0255971	1	0,097808	-15,17141	-0,0000979	3,442349	11
	59	1289	0,0125907	0,0973521	-0,0270143	1	0,1010307	-15,50884	-0,0000982	3,442611	11
	60	1608	0,0100011	0,1004772	-0,0286148	1	0,1044724	-15,89637	-0,0000981	3,442864	11
	61	1910	0,0079436	0,1037181	-0,0304106	1	0,1080844	-16,34135	-0,0000979	3,443179	11
	62	2288	0,0063097	0,1068729	-0,0323522	1	0,1116623	-16,84192	-0,0000974	3,443634	11
	63	2924	0,0050123	0,109891	-0,0344247	1	0,1151568	-17,39378	-0,0000979	3,444222	11
	64	3723	0,0039812	0,1129373	-0,0367807	1	0,1187757	-18,03907	-0,0000985	3,444841	11
	65	4477	0,0031623	0,1159178	-0,0395189	1	0,1224691	-18,82538	-0,0000976	3,445502	11
	66	5427	0,0025119	0,1182648	-0,0425909	1	0,1257002	-19,80554	-0,0000979	3,446345	11
	67	7021	0,0019953	0,1203657	-0,0461869	1	0,1289229	-20,99287	-0,0000981	3,447409	11
	68	9027	0,0015849	0,1222386	-0,0504368	1	0,1322352	-22,42153	-0,0000982	3,448579	11
	69	11552	0,0012589	0,1241696	-0,0555336	1	0,1360223	-24,09612	-0,000098	3,449746	11
	70	13936	0,001	0,1262231	-0,0616228	1	0,1404623	-26,02188	-0,0000981	3,450899	11
