Freq(Hz)	Zmod(Ohm)	Zphz(Deg)	Zreal(Ohm)	Zimag(Ohm)	Capacity(Ah)	SOH
10019.530273437504	0.046453800052404313	51.357330322265604	0.0290086069926865	0.0362830023516883	4.83362817764282	99.3356069369145
7958.795794866109	0.04142186769497305	48.23739349532624	0.02758886105467782	0.03089702039105929	4.83362817764282	99.3356069369145
6321.89621426703	0.03654634958225475	44.27045536001969	0.026169115116669136	0.02551103843043028	4.83362817764282	99.3356069369145
5021.660659988852	0.03189904657908007	39.11643373860645	0.02474936917866046	0.020125056469801297	4.83362817764282	99.3356069369145
3988.8468474333145	0.0289513367459848	34.24181038729159	0.023933206921253947	0.016290534240590515	4.83362817764282	99.3356069369145
3168.4536749072195	0.02695514130951154	29.565291108480366	0.02344541997102019	0.013300072383194878	4.83362817764282	99.3356069369145
2516.7922143947135	0.02516626676944306	24.183472536831545	0.022957633020786433	0.010309610525799241	4.83362817764282	99.3356069369145
1999.1591168279679	0.023908334305611192	18.90862867361701	0.02261815849807726	0.00774773227626771	4.83362817764282	99.3356069369145
1587.9885322029147	0.023460576698651574	15.310989148206273	0.022627885539719134	0.006194953997785855	4.83362817764282	99.3356069369145
1261.3841275471439	0.02310868448857896	11.58868489309719	0.02263761258136101	0.004642175719303994	4.83362817764282	99.3356069369145
1001.9530273437505	0.022857085740465577	7.767957351191297	0.022647339623002884	0.0030893974408221325	4.83362817764282	99.3356069369145
795.8795794866109	0.02294804414868508	5.818627804433539	0.022829811262652863	0.002326466840865793	4.83362817764282	99.3356069369145
632.189621426703	0.023066570554884903	3.89742489969551	0.023013225297705248	0.0015678451966129956	4.83362817764282	99.3356069369145
502.1660659988852	0.023210750076025823	1.9979747357601514	0.02319663933275763	0.0008092235523602014	4.83362817764282	99.3356069369145
398.88468474333143	0.023415850792126557	0.7687282969178488	0.0234137432614623	0.0003141572941420137	4.83362817764282	99.3356069369145
316.8453674907219	0.02364878894159525	-0.0989140562655697	0.023648753700486753	-4.082668039275591e-05	4.83362817764282	99.3356069369145
251.67922143947135	0.02388704367531394	-0.9494401332815783	0.023883764139511206	-0.00039581065492752564	4.83362817764282	99.3356069369145
199.91591168279678	0.02413392976058511	-1.6354223647303012	0.024124099089568862	-0.0006887734065122266	4.83362817764282	99.3356069369145
158.79885322029148	0.024390675420196198	-1.9917665423459294	0.024375939349512245	-0.0008477194596466168	4.83362817764282	99.3356069369145
126.13841275471438	0.024648344852069497	-2.3406736642935284	0.024627779609455624	-0.0010066655127810077	4.83362817764282	99.3356069369145
100.19530273437505	0.02490690938611994	-2.682349063419489	0.024879619869399006	-0.0011656115659153987	4.83362817764282	99.3356069369145
79.58795794866109	0.02515952986565071	-2.7624744893503066	0.02513029240293215	-0.0012125785762995647	4.83362817764282	99.3356069369145
63.2189621426703	0.025412061314140443	-2.8358523437142424	0.025380941055226956	-0.0012572554969966143	4.83362817764282	99.3356069369145
50.21660659988852	0.025664633622067876	-2.907786053186346	0.025631589707521756	-0.0013019324176936637	4.83362817764282	99.3356069369145
39.888468474333145	0.025905674640107238	-2.869606603527732	0.025873190334477398	-0.0012969196100763765	4.83362817764282	99.3356069369145
31.684536749072194	0.026139548916811986	-2.7646268046988935	0.02610912524736898	-0.001260791969996023	4.83362817764282	99.3356069369145
25.167922143947134	0.026373509390460653	-2.6615092249155374	0.026345060160260565	-0.0012246643299156693	4.83362817764282	99.3356069369145
19.99159116827968	0.02658322930071406	-2.523855608150937	0.026557442868277548	-0.0011706017053278992	4.83362817764282	99.3356069369145
15.879885322029146	0.026740662454947578	-2.309937284857412	0.026718933519286333	-0.001077784821474284	4.83362817764282	99.3356069369145
12.613841275471438	0.026898463997282945	-2.0985259740681177	0.02688042417029512	-0.0009849679376206686	4.83362817764282	99.3356069369145
10.019530273437505	0.027056627482104887	-1.889583517849143	0.027041914821303904	-0.0008921510537670532	4.83362817764282	99.3356069369145
7.958795794866109	0.027156951046814894	-1.7029062098321017	0.027144957290041804	-0.0008070216111770541	4.83362817764282	99.3356069369145
6.32189621426703	0.02725637002711165	-1.518001943148903	0.027246804431724194	-0.0007220493848797266	4.83362817764282	99.3356069369145
5.021660659988852	0.027356070810508986	-1.3344435649366189	0.02734865157340658	-0.0006370771585823995	4.83362817764282	99.3356069369145
3.9888468474333143	0.027426419374341208	-1.2622914193785428	0.027419763646639703	-0.0006041864444478273	4.83362817764282	99.3356069369145
3.1684536749072194	0.02748197853086613	-1.2455357952649886	0.027475485192134365	-0.0005973754496060471	4.83362817764282	99.3356069369145
2.5167922143947137	0.027537540028210596	-1.2288477841611047	0.027531206737629026	-0.0005905644547642667	4.83362817764282	99.3356069369145
1.9991591168279679	0.027594200411007297	-1.2230387356783061	0.027587913946222037	-0.000588982528334151	4.83362817764282	99.3356069369145
1.5879885322029146	0.027652842800421077	-1.2367358146182215	0.027646401084960196	-0.0005968433582703554	4.83362817764282	99.3356069369145
1.2613841275471438	0.027711486763485903	-1.2503749219136493	0.027704888223698355	-0.00060470418820656	4.83362817764282	99.3356069369145
1.0019530273437505	0.027770132290232237	-1.2639564232909823	0.027763375362436515	-0.0006125650181427644	4.83362817764282	99.3356069369145
0.7958795794866117	0.02783118756795032	-1.3459760321426266	0.027823508453187443	-0.0006537421493519038	4.83362817764282	99.3356069369145
0.632189621426703	0.027892345501104716	-1.4289024528819942	0.02788367204011134	-0.0006955365644663163	4.83362817764282	99.3356069369145
0.5021660659988852	0.027953561607140746	-1.5114658412377369	0.027943835627035233	-0.0007373309795807285	4.83362817764282	99.3356069369145
0.39888468474333105	0.028037731976327272	-1.6524703557495377	0.028026071806667604	-0.0008085254874622299	4.83362817764282	99.3356069369145
0.31684536749072195	0.02813358274859323	-1.8218934869218526	0.02811936079836553	-0.0008944420402052704	4.83362817764282	99.3356069369145
0.25167922143947163	0.0282296778434954	-1.990164633157241	0.028212649790063455	-0.0009803585929483109	4.83362817764282	99.3356069369145
0.1999159116827968	0.028333831533844594	-2.225328893076936	0.02831246353431306	-0.0011001899865385458	4.83362817764282	99.3356069369145
0.15879885322029147	0.028453988065920446	-2.589914620667961	0.02842492343385193	-0.0012857545003609717	4.83362817764282	99.3356069369145
0.12613841275471424	0.028575287000455283	-2.9514196306402805	0.0285373833333908	-0.0014713190141833988	4.83362817764282	99.3356069369145
0.10019530273437505	0.028697713851399787	-3.3098543874452906	0.028649843232929673	-0.0016568835280058244	4.83362817764282	99.3356069369145
0.07958795794866116	0.028924189587496207	-3.8967224174183803	0.02885732172017978	-0.001965636393503242	4.83362817764282	99.3356069369145
0.0632189621426703	0.02915381112796808	-4.474756675753875	0.02906494460962362	-0.0022745764715098476	4.83362817764282	99.3356069369145
0.05021660659988852	0.029386353393183816	-5.043699797121413	0.02927256749906746	-0.0025835165495164502	4.83362817764282	99.3356069369145
0.039888468474333104	0.029704767699132863	-5.857332542293965	0.029549681769375565	-0.003031423986855112	4.83362817764282	99.3356069369145
0.03168453674907219	0.03007307958229079	-6.781436931007204	0.029862682823156343	-0.003551097037023672	4.83362817764282	99.3356069369145
0.025167922143947162	0.03044902406553652	-7.682951825639431	0.030175683876937122	-0.004070770087192231	4.83362817764282	99.3356069369145
0.019991591168279678	0.03091589888788357	-8.752983525609267	0.03055583958300494	-0.004704622346534189	4.83362817764282	99.3356069369145
0.015879885322029146	0.031570937384619524	-10.170263808976223	0.031074875287019955	-0.005574604312390521	4.83362817764282	99.3356069369145
0.012613841275471424	0.03224450191904363	-11.529135263089362	0.03159391099103497	-0.00644458627824686	4.83362817764282	99.3356069369145
0.010019530273437504	0.03293545588020249	-12.831698656560782	0.032112946695049986	-0.007314568244103191	4.83362817764282	99.3356069369145
