Freq(Hz)	Zmod(Ohm)	Zphz(Deg)	Zreal(Ohm)	Zimag(Ohm)	Capacity(Ah)	SOH
10019.530273437504	0.04628660157322878	51.802608489990256	0.0286223669568322	0.036375948028708	4.86595726013184	100.0
7958.795794866109	0.041221357239035306	48.69571632929339	0.027208479763291903	0.03096609309549242	4.86595726013184	100.0
6321.89621426703	0.03631091178759493	44.73405291980206	0.025794592569751605	0.025556238162276847	4.86595726013184	100.0
5021.660659988852	0.031627449341573875	39.56776934423716	0.024380705376211315	0.020146383229061295	4.86595726013184	100.0
3988.8468474333145	0.02865400829558257	34.65791132308816	0.023569698484359344	0.01629483061463677	4.86595726013184	100.0
3168.4536749072195	0.026639205922062658	29.929140327860978	0.02308668423150285	0.013291061031871606	4.86595726013184	100.0
2516.7922143947135	0.024834537681672618	24.47104035134695	0.022603669978646355	0.010287291449106447	4.86595726013184	100.0
1999.1591168279679	0.02356856852095221	19.101775412659165	0.02227085420233651	0.007712747579500431	4.86595726013184	100.0
1587.9885322029147	0.023124163992537406	15.420695625379796	0.022291680692211945	0.006148815517661	4.86595726013184	100.0
1261.3841275471439	0.02277869910803001	11.611786288974562	0.022312507182087382	0.0045848834558215625	4.86595726013184	100.0
1001.9530273437505	0.022536724256822037	7.703442040146578	0.02233333367196282	0.0030209513939821243	4.86595726013184	100.0
795.8795794866109	0.022651739597193264	5.718525559543784	0.02253901105624448	0.0022570528096485538	4.86595726013184	100.0
632.189621426703	0.022794939986818464	3.766772020302943	0.022745696880934852	0.001497518748892946	4.86595726013184	100.0
502.1660659988852	0.022964243799119738	1.8415885879386031	0.02295238270562523	0.0007379846881373413	4.86595726013184	100.0
398.88468474333143	0.02319520516653869	0.6373408357863816	0.023193770133266053	0.00025801109092180876	4.86595726013184	100.0
316.8453674907219	0.023453716576772008	-0.1792462639982135	0.023453601804683918	-7.337336626701948e-05	4.86595726013184	100.0
251.67922143947135	0.02371688757238507	-0.9778703396544736	0.023713433476101782	-0.0004047578234558478	4.86595726013184	100.0
199.91591168279678	0.023979981202221234	-1.5830713658900855	0.02397082855051203	-0.0006624779700797816	4.86595726013184	100.0
158.79885322029148	0.02423491031440189	-1.7994935136597183	0.0242229585773969	-0.0007610228017720292	4.86595726013184	100.0
126.13841275471438	0.024490178004741875	-2.011406980577242	0.02447508860428177	-0.0008595676334642772	4.86595726013184	100.0
100.19530273437505	0.024745773795325186	-2.218945586125518	0.024727218631166635	-0.0009581124651565254	4.86595726013184	100.0
79.58795794866109	0.024940893508829397	-2.1444488241377604	0.024923426544945934	-0.0009332621697319125	4.86595726013184	100.0
63.2189621426703	0.025134820733939616	-2.065454177435875	0.025118490792451976	-0.0009058883136381747	4.86595726013184	100.0
50.21660659988852	0.02532879500515369	-1.9876693064308906	0.025313555039958018	-0.0008785144575444369	4.86595726013184	100.0
39.888468474333145	0.025484327182151545	-1.8503792008424875	0.02547103850835105	-0.0008228786259504218	4.86595726013184	100.0
31.684536749072194	0.025615958088268408	-1.6767646357221508	0.025604989554941816	-0.0007495456432026804	4.86595726013184	100.0
25.167922143947134	0.0257478217884811	-1.5049267894145872	0.025738940601532586	-0.0006762126604549389	4.86595726013184	100.0
19.99159116827968	0.025858887113909147	-1.3535985199978364	0.025851671153994064	-0.0006108529410976875	4.86595726013184	100.0
15.879885322029146	0.025924656011670988	-1.2437630066621133	0.02591854805484543	-0.0005627220025348741	4.86595726013184	100.0
12.613841275471438	0.025990519696444503	-1.1344837711545872	0.025985424955696796	-0.0005145910639720605	4.86595726013184	100.0
10.019530273437505	0.026056477449442388	-1.0257573871714611	0.026052301856548162	-0.0004664601254092469	4.86595726013184	100.0
7.958795794866109	0.02607932427084501	-0.9409346591290493	0.026075807611949216	-0.00042826604873235453	4.86595726013184	100.0
6.32189621426703	0.02610134430104868	-0.856735743494999	0.02609842638162085	-0.0003902751913755095	4.86595726013184	100.0
5.021660659988852	0.026123420603892118	-0.7726789557295879	0.026121045151292478	-0.00035228433401866463	4.86595726013184	100.0
3.9888468474333143	0.026158337605242166	-0.7538242769688484	0.02615607364469132	-0.0003441478800031382	4.86595726013184	100.0
3.1684536749072194	0.02619966706041331	-0.7675358357647226	0.02619731628391403	-0.0003509609623290732	4.86595726013184	100.0
2.5167922143947137	0.026240998011317084	-0.7812042024899665	0.026238558923136736	-0.0003577740446550082	4.86595726013184	100.0
1.9991591168279679	0.026277343691103325	-0.8171547723997561	0.026274671254064304	-0.0003747558554775461	4.86595726013184	100.0
1.5879885322029146	0.02630471617798132	-0.8932992492975423	0.026301519171620064	-0.00041010055968554503	4.86595726013184	100.0
1.2613841275471438	0.026332135026722048	-0.9692852863258117	0.02632836708917583	-0.0004454452638935441	4.86595726013184	100.0
1.0019530273437505	0.026359600092650818	-1.0451131110293472	0.02635521500673159	-0.0004807899681015431	4.86595726013184	100.0
0.7958795794866117	0.026429226161711696	-1.1797172070211024	0.026423624077001405	-0.0005441379827007564	4.86595726013184	100.0
0.632189621426703	0.02649977907152909	-1.314696563920054	0.026492803191654143	-0.0006080048421938628	4.86595726013184	100.0
0.5021660659988852	0.026570478272400132	-1.4489583517238147	0.02656198230630688	-0.0006718717016869686	4.86595726013184	100.0
0.39888468474333105	0.02665942533582831	-1.6178307072492135	0.026648798283566935	-0.0007526681063818297	4.86595726013184	100.0
0.31684536749072195	0.02675769519501881	-1.803133032440806	0.026744445888828263	-0.0008419419511283315	4.86595726013184	100.0
0.25167922143947163	0.026856242880007566	-1.9870773540389373	0.02684009349408959	-0.0009312157958748333	4.86595726013184	100.0
0.1999159116827968	0.026964023120908436	-2.2196484961709126	0.026943791833311304	-0.0010443296931868665	4.86595726013184	100.0
0.15879885322029147	0.027089847317799547	-2.546591433589451	0.027063093956898685	-0.0012036499415383271	4.86595726013184	100.0
0.12613841275471424	0.027216545416620243	-2.8705008756277643	0.027182396080486063	-0.0013629701898897895	4.86595726013184	100.0
0.10019530273437505	0.027344105269777392	-3.191398428422668	0.02730169820407344	-0.00152229043824125	4.86595726013184	100.0
0.07958795794866116	0.027556515677946723	-3.753873539022326	0.02749739315464567	-0.0018041413491655762	4.86595726013184	100.0
0.0632189621426703	0.02777167080965808	-4.308056342780336	0.02769320420136359	-0.0020861784730920314	4.86595726013184	100.0
0.05021660659988852	0.0279893839986107	-4.853668200924115	0.027889015248081513	-0.002368215597018484	4.86595726013184	100.0
0.039888468474333104	0.028274794930208975	-5.637888403293212	0.02813801993637999	-0.0027777441216305814	4.86595726013184	100.0
0.03168453674907219	0.028600109407780107	-6.531228530643857	0.028414494919178065	-0.0032531118371485444	4.86595726013184	100.0
0.025167922143947162	0.028932219301165837	-7.404267776437178	0.02869096990197614	-0.003728479552666507	4.86595726013184	100.0
0.019991591168279678	0.029355856669877275	-8.437539444098789	0.02903812088238873	-0.004307418767911682	4.86595726013184	100.0
0.015879885322029146	0.029968670648374263	-9.799219791870257	0.029531434221913323	-0.005100550286737272	4.86595726013184	100.0
0.012613841275471424	0.030597727878934004	-11.105623782517021	0.03002474756143792	-0.005893681805562869	4.86595726013184	100.0
0.010019530273437504	0.03124204720549017	-12.358772134823797	0.030518060900962516	-0.0066868133243884595	4.86595726013184	100.0
