Freq(Hz)	Zmod(Ohm)	Zphz(Deg)	Zreal(Ohm)	Zimag(Ohm)	Capacity(Ah)	SOH
10019.530273437504	0.045598600059747633	49.110099792480504	0.0298491885868647	0.0344711222346271	4.54323816299438	93.3678189123939
7958.795794866109	0.04090201079597474	45.88312698804689	0.02847288147221907	0.029364425889552105	4.54323816299438	93.3678189123939
6321.89621426703	0.03636841740533267	41.835933188135485	0.027096574357573445	0.02425772954447711	4.54323816299438	93.3678189123939
5021.660659988852	0.03206702698493	36.67097153750773	0.025720267242927822	0.01915103319940214	4.54323816299438	93.3678189123939
3988.8468474333145	0.029359686846679937	31.882587355713156	0.024930256805938685	0.01550720823762481	4.54323816299438	93.3678189123939
3168.4536749072195	0.027541057382927354	27.36452676660032	0.024459216808023952	0.012659247801815706	4.54323816299438	93.3678189123939
2516.7922143947135	0.025917059757067783	22.244813329786282	0.023988176810109216	0.009811287366006604	4.54323816299438	93.3678189123939
1999.1591168279679	0.0247824267992799	17.308009679990434	0.02366025914801465	0.0073729787135496105	4.54323816299438	93.3678189123939
1587.9885322029147	0.02439338747900429	13.994917777100657	0.023669322980971765	0.005899195057233236	4.54323816299438	93.3678189123939
1261.3841275471439	0.02408838450742196	10.586256809766965	0.023678386813928885	0.004425411400916855	4.54323816299438	93.3678189123939
1001.9530273437505	0.023870639381703945	7.102857750387812	0.023687450646886002	0.0029516277446004742	4.54323816299438	93.3678189123939
795.8795794866109	0.023955897472925692	5.336598274426274	0.023852060452808858	0.002228056527307851	4.54323816299438	93.3678189123939
632.189621426703	0.024064850266862427	3.5941161508662534	0.024017518828304805	0.001508578038595546	4.54323816299438	93.3678189123939
502.1660659988852	0.024195848084726704	1.868919500712401	0.024182977203800752	0.0007890995498832443	4.54323816299438	93.3678189123939
398.88468474333143	0.02438140656096465	0.7321490411386515	0.024379415994962756	0.00031154716433355145	4.54323816299438	93.3678189123939
316.8453674907219	0.02459234965022527	-0.08717988266776654	0.024592321182206663	-3.741911442643395e-05	4.54323816299438	93.3678189123939
251.67922143947135	0.024808235505810437	-0.8924112086143023	0.024805226369450567	-0.0003863853931864193	4.54323816299438	93.3678189123939
199.91591168279678	0.025034893604757715	-1.5587948358889092	0.025025629112592377	-0.0006810178562325404	4.54323816299438	93.3678189123939
158.79885322029148	0.0252768072791728	-1.9457858457400787	0.02526223272440608	-0.0008582447240674556	4.54323816299438	93.3678189123939
126.13841275471438	0.025519852192341534	-2.3254226834253084	0.02549883633621978	-0.0010354715919023716	4.54323816299438	93.3678189123939
100.19530273437505	0.02576399632962803	-2.6978806060644214	0.02573543994803348	-0.0012126984597372876	4.54323816299438	93.3678189123939
79.58795794866109	0.026021283706371592	-2.8685990770234504	0.02598867733690789	-0.001302250362092458	4.54323816299438	93.3678189123939
63.2189621426703	0.0262790423737173	-3.032030022150329	0.026242254904090392	-0.0013900092188086218	4.54323816299438	93.3678189123939
50.21660659988852	0.02653701069884849	-3.192284800498889	0.02649583247127289	-0.0014777680755247852	4.54323816299438	93.3678189123939
39.888468474333145	0.026800466149472683	-3.2913944983709937	0.02675625747120643	-0.0015387241349706965	4.54323816299438	93.3678189123939
31.684536749072194	0.027067293794965735	-3.3525729535449	0.02702097021289422	-0.0015828967549634922	4.54323816299438	93.3678189123939
25.167922143947134	0.027334151697992897	-3.4125569297455716	0.027285682954582013	-0.0016270693749562879	4.54323816299438	93.3678189123939
19.99159116827968	0.02761623302420768	-3.4183214435545364	0.0275670985680991	-0.0016466338342349682	4.54323816299438	93.3678189123939
15.879885322029146	0.02793122094778671	-3.3106660281940044	0.027884606068123766	-0.0016130245068300838	4.54323816299438	93.3678189123939
12.613841275471438	0.028246305280863557	-3.2054120160257016	0.028202113568148432	-0.0015794151794251991	4.54323816299438	93.3678189123939
10.019530273437505	0.028561482832729867	-3.1024806306154837	0.028519621068173094	-0.0015458058520203145	4.54323816299438	93.3678189123939
7.958795794866109	0.02878449679110635	-2.894262613870659	0.028747779815646895	-0.0014534136328990498	4.54323816299438	93.3678189123939
6.32189621426703	0.029006003399774966	-2.6870461833634796	0.02897411128676837	-0.0013598192415606243	4.54323816299438	93.3678189123939
5.021660659988852	0.029227883649489944	-2.4829732385339636	0.02920044275788984	-0.0012662248502221995	4.54323816299438	93.3678189123939
3.9888468474333143	0.0293776016477711	-2.310880005111332	0.029353710501151882	-0.0011845498679621078	4.54323816299438	93.3678189123939
3.1684536749072194	0.029491244837370607	-2.1547761752287466	0.029470391720061398	-0.0011088435073873366	4.54323816299438	93.3678189123939
2.5167922143947137	0.029605105260074805	-1.9998719449336344	0.029587072938970914	-0.0010331371468125653	4.54323816299438	93.3678189123939
1.9991591168279679	0.029710891852111267	-1.860190446779334	0.029695234543961096	-0.0009644376739796586	4.54323816299438	93.3678189123939
1.5879885322029146	0.029801858829675183	-1.7467049710938554	0.029788011259666625	-0.0009083913792319706	4.54323816299438	93.3678189123939
1.2613841275471438	0.029892942012658935	-1.6339106309891727	0.029880787975372154	-0.0008523450844842825	4.54323816299438	93.3678189123939
1.0019530273437505	0.02998414034206675	-1.5218019983614384	0.029973564691077682	-0.0007962987897365945	4.54323816299438	93.3678189123939
0.7958795794866117	0.030064053998386856	-1.6303591262394748	0.030051883467131554	-0.0008553612662880861	4.54323816299438	93.3678189123939
0.632189621426703	0.030143872025942698	-1.7424076446480268	0.030129934366707266	-0.0009165564763413138	4.54323816299438	93.3678189123939
0.5021660659988852	0.030223804727535823	-1.8538639194487485	0.030207985266282978	-0.000977751686394541	4.54323816299438	93.3678189123939
0.39888468474333105	0.030331869404005177	-2.029745262794264	0.030312838405721316	-0.0010743041144165109	4.54323816299438	93.3678189123939
0.31684536749072195	0.03045431496612143	-2.236690054864409	0.030431112719738022	-0.0011885616072911242	4.54323816299438	93.3678189123939
0.25167922143947163	0.03057715463783212	-2.44197476049423	0.03054938703375473	-0.0013028191001657372	4.54323816299438	93.3678189123939
0.1999159116827968	0.03071125614943323	-2.7164640581975594	0.030676745836836414	-0.0014555133590043326	4.54323816299438	93.3678189123939
0.15879885322029147	0.030867611321720067	-3.124949068959303	0.030821712029398308	-0.001682705050097751	4.54323816299438	93.3678189123939
0.12613841275471424	0.031025519587340306	-3.5292963876658288	0.030966678221960205	-0.0019098967411911715	4.54323816299438	93.3678189123939
0.10019530273437505	0.0311849573535554	-3.929528898277453	0.0311116444145221	-0.0021370884322845897	4.54323816299438	93.3678189123939
0.07958795794866116	0.031486493408441514	-4.608296563526227	0.03138470560473216	-0.0025297275078799584	4.54323816299438	93.3678189123939
0.0632189621426703	0.03179258121243255	-5.27451445134301	0.031657961464207594	-0.0029226180181245454	4.54323816299438	93.3678189123939
0.05021660659988852	0.0321028851752294	-5.927940055938129	0.03193121732368303	-0.003315508528369129	4.54323816299438	93.3678189123939
0.039888468474333104	0.03250867277710161	-6.836553647683729	0.03227752852259127	-0.003869749113569774	4.54323816299438	93.3678189123939
0.03168453674907219	0.032971106149250466	-7.857221845350044	0.032661567006741825	-0.004507314207957522	4.54323816299438	93.3678189123939
0.025167922143947162	0.03344371129667575	-8.849350720878212	0.033045605490892374	-0.005144879302345269	4.54323816299438	93.3678189123939
0.019991591168279678	0.034023682130844835	-10.06796570832127	0.03349975397790824	-0.005947892833633684	4.54323816299438	93.3678189123939
0.015879885322029146	0.034828812074469764	-11.75077921709898	0.034098894311689915	-0.007093064023321075	4.54323816299438	93.3678189123939
0.012613841275471424	0.03566261526701595	-13.35623557603022	0.03469803464547159	-0.008238235213008475	4.54323816299438	93.3678189123939
0.010019530273437504	0.03652312797713493	-14.887196301299257	0.03529717497925326	-0.009383406402695865	4.54323816299438	93.3678189123939
