Freq(Hz)	Zmod(Ohm)	Zphz(Deg)	Zreal(Ohm)	Zimag(Ohm)	Capacity(Ah)	SOH
10019.530273437504	0.0456807017326355	48.30160903930665	0.0303872315756808	0.0341078094862739	4.45911455154419	91.63899954648129
7958.795794866109	0.04101867828681382	45.12953684870227	0.028938936642403386	0.0290700862469325	4.45911455154419	91.63899954648129
6321.89621426703	0.036514241787392626	41.16000631554607	0.027490641709125976	0.024032363007591102	4.45911455154419	91.63899954648129
5021.660659988852	0.032233525490072044	36.106080765025624	0.02604234677584857	0.01899463976824973	4.45911455154419	91.63899954648129
3988.8468474333145	0.02954655149485566	31.411512926220276	0.02521638882164514	0.015399105169904104	4.45911455154419	91.63899954648129
3168.4536749072195	0.027748625569801563	26.97815003331892	0.024729008770118768	0.012588182802153538	4.45911455154419	91.63899954648129
2516.7922143947135	0.02613907772918213	21.96546363551904	0.024241628718592395	0.009777260434402971	4.45911455154419	91.63899954648129
1999.1591168279679	0.02500971481561322	17.138386869392185	0.023899178436206	0.007369878237304171	4.45911455154419	91.63899954648129
1587.9885322029147	0.02461852861862321	13.896572262287723	0.023897965250059074	0.00591263124614912	4.45911455154419	91.63899954648129
1261.3841275471439	0.02430854187448804	10.561144153588048	0.02389675206391215	0.004455384254994064	4.45911455154419	91.63899954648129
1001.9530273437505	0.02408289030227911	7.151444557577911	0.023895538877765223	0.002998137263839008	4.45911455154419	91.63899954648129
795.8795794866109	0.024159314505946192	5.46443124442181	0.024049522666075407	0.002300638374701091	4.45911455154419	91.63899954648129
632.189621426703	0.024257660080305585	3.7991347691024147	0.024204353120023083	0.00160728423524903	4.45911455154419	91.63899954648129
502.1660659988852	0.024376322376650873	2.14866755623548	0.024359183573970756	0.0009139300957969718	4.45911455154419	91.63899954648129
398.88468474333143	0.024545703560019266	1.0762776818404838	0.024541373079161218	0.00046105384258625	4.45911455154419	91.63899954648129
316.8453674907219	0.024738477989759745	0.31497163596763555	0.024738104189572365	0.00013599395460672293	4.45911455154419	91.63899954648129
251.67922143947135	0.02493555207659269	-0.43443128091228034	0.024934835299983513	-0.00018906593337280424	4.45911455154419	91.63899954648129
199.91591168279678	0.025137034340420535	-1.0369850168776407	0.025132917425559557	-0.00045492539112046464	4.45911455154419	91.63899954648129
158.79885322029148	0.02534085498493358	-1.3405888962383006	0.025333918851712784	-0.0005928633757152974	4.45911455154419	91.63899954648129
126.13841275471438	0.025545375789469298	-1.6393396396843194	0.025534920277866014	-0.0007308013603101308	4.45911455154419	91.63899954648129
100.19530273437505	0.02575058007122936	-1.933336829742922	0.025735921704019244	-0.0008687393449049642	4.45911455154419	91.63899954648129
79.58795794866109	0.025943423674392552	-2.0078412335818143	0.025927495488325257	-0.0009089607537762013	4.45911455154419	91.63899954648129
63.2189621426703	0.02613604532032099	-2.07688337577773	0.026118876467398806	-0.0009471837554738383	4.45911455154419	91.63899954648129
50.21660659988852	0.026328704361907616	-2.144915190376773	0.026310257446472352	-0.0009854067571714751	4.45911455154419	91.63899954648129
39.888468474333145	0.026521157361831284	-2.145383172757708	0.02650256749797595	-0.000992826181285779	4.45911455154419	91.63899954648129
31.684536749072194	0.026713476463139357	-2.1044558689668316	0.02669545931826733	-0.0009809569477985491	4.45911455154419	91.63899954648129
25.167922143947134	0.026905809000073957	-2.064113671428378	0.026888351138558714	-0.0009690877143113194	4.45911455154419	91.63899954648129
19.99159116827968	0.02707856699864824	-1.9923790961512897	0.027062196925978416	-0.0009414288288796942	4.45911455154419	91.63899954648129
15.879885322029146	0.02720911065092355	-1.8526549707782733	0.02719488767947045	-0.000879651360021498	4.45911455154419	91.63899954648129
12.613841275471438	0.02733981456980941	-1.714265991977654	0.027327578432962484	-0.0008178738911633017	4.45911455154419	91.63899954648129
10.019530273437505	0.027470676467687614	-1.5771947053606614	0.027460269186454517	-0.0007560964223051053	4.45911455154419	91.63899954648129
7.958795794866109	0.02754056412459057	-1.445752587021993	0.027531796892893375	-0.0006948612445314888	4.45911455154419	91.63899954648129
6.32189621426703	0.027609345725149816	-1.3150591455146992	0.027602073750424713	-0.0006336371571832741	4.45911455154419	91.63899954648129
5.021660659988852	0.027678270265537975	-1.1850159368538185	0.027672350607956052	-0.0005724130698350599	4.45911455154419	91.63899954648129
3.9888468474333143	0.027744198714787446	-1.1349394971200684	0.027738755842478792	-0.0005495331081582643	4.45911455154419	91.63899954648129
3.1684536749072194	0.027808580161137218	-1.1247295966260211	0.02780322236905933	-0.0005458538953175071	4.45911455154419	91.63899954648129
2.5167922143947137	0.02787296248643994	-1.114566862460644	0.027867688895639866	-0.00054217468247675	4.45911455154419	91.63899954648129
1.9991591168279679	0.027933552883664864	-1.119605654511394	0.027928219936710914	-0.0005458093725876646	4.45911455154419	91.63899954648129
1.5879885322029146	0.027987300494711768	-1.1519416497461945	0.02798164419930372	-0.0005626516549927407	4.45911455154419	91.63899954648129
1.2613841275471438	0.028041056985903826	-1.1841536748857733	0.02803506846189652	-0.0005794939373978169	4.45911455154419	91.63899954648129
1.0019530273437505	0.028094822306267368	-1.2162424212367575	0.028088492724489322	-0.000596336219802893	4.45911455154419	91.63899954648129
0.7958795794866117	0.02816252707345393	-1.3669324885727938	0.028154512694131665	-0.000671822981896687	4.45911455154419	91.63899954648129
0.632189621426703	0.028230687783680285	-1.519090654400735	0.02822076603683584	-0.000748396307986538	4.45911455154419	91.63899954648129
0.5021660659988852	0.028299046631920673	-1.6705147808680365	0.02828701937954002	-0.0008249696340763882	4.45911455154419	91.63899954648129
0.39888468474333105	0.028390808908738133	-1.8509562096175045	0.028375995431177355	-0.0009170135125975453	4.45911455154419	91.63899954648129
0.31684536749072195	0.028494497557368877	-2.04499001123427	0.028476349839438923	-0.0010168042431007958	4.45911455154419	91.63899954648129
0.25167922143947163	0.028598510625478753	-2.2376146028882755	0.02857670424770049	-0.0011165949736040466	4.45911455154419	91.63899954648129
0.1999159116827968	0.02872030021992446	-2.469947676880975	0.028693617999714056	-0.0012377119249157495	4.45911455154419	91.63899954648129
0.15879885322029147	0.02887659216643499	-2.7792371235206246	0.02884262676696654	-0.0014001629648294387	4.45911455154419	91.63899954648129
0.12613841275471424	0.029033716494393385	-3.08518778738676	0.02899163553421902	-0.0015626140047431292	4.45911455154419	91.63899954648129
0.10019530273437505	0.02919165976290455	-3.3878362737638996	0.029140644301471504	-0.0017250650446568182	4.45911455154419	91.63899954648129
0.07958795794866116	0.029430208817216443	-3.92278481807364	0.029361258320225084	-0.0020133804603148907	4.45911455154419	91.63899954648129
0.0632189621426703	0.02967140532206518	-4.4494378757602675	0.029581981159322656	-0.0023018871553048166	4.45911455154419	91.63899954648129
0.05021660659988852	0.029915068208464735	-4.967554777117137	0.02980270399842022	-0.0025903938502947394	4.45911455154419	91.63899954648129
0.039888468474333104	0.030240160923881314	-5.687850209280273	0.030091276779412316	-0.002997064311462085	4.45911455154419	91.63899954648129
0.03168453674907219	0.030611599007535576	-6.498917929394582	0.030414888670911636	-0.0034647569805404876	4.45911455154419	91.63899954648129
0.025167922143947162	0.030989023493361748	-7.290384600400671	0.030738500562410957	-0.00393244964961889	4.45911455154419	91.63899954648129
0.019991591168279678	0.031439384875461905	-8.23531213048206	0.03111518630481421	-0.004503343487246444	4.45911455154419	91.63899954648129
0.015879885322029146	0.032040950948179	-9.49887864902554	0.03160163207207892	-0.005287663760543591	4.45911455154419	91.63899954648129
0.012613841275471424	0.03265752179102071	-10.715306477244596	0.03208807783934363	-0.006071984033840747	4.45911455154419	91.63899954648129
0.010019530273437504	0.03328826365176714	-11.886148232043997	0.032574523606608334	-0.0068563043071378955	4.45911455154419	91.63899954648129
