Freq(Hz)	Zmod(Ohm)	Zphz(Deg)	Zreal(Ohm)	Zimag(Ohm)	Capacity(Ah)	SOH
10019.530273437504	0.04523190110921854	49.59819030761712	0.0293167832316951	0.0344448994613125	4.65217447280884	95.39134749588735
7958.795794866109	0.04050772924969183	46.441565781144796	0.02791363337333363	0.029354815633307156	4.65217447280884	95.39134749588735
6321.89621426703	0.03593859966360454	42.46749889177969	0.026510483514972167	0.024264731805301813	4.65217447280884	95.39134749588735
5021.660659988852	0.03159185541239414	37.36922792148209	0.025107333656610706	0.01917464797729649	4.65217447280884	95.39134749588735
3988.8468474333145	0.028842982333187935	32.598749589524	0.024299178733860772	0.01553922593736508	4.65217447280884	95.39134749588735
3168.4536749072195	0.02698720719525942	28.06127449393832	0.023814726474099913	0.012695202052888589	4.65217447280884	95.39134749588735
2516.7922143947135	0.025324837733380505	22.89183961745602	0.02333027421433906	0.009851178168412095	4.65217447280884	95.39134749588735
1999.1591168279679	0.024156713418189243	17.878801363859246	0.02299013877599487	0.00741622021174004	4.65217447280884	95.39134749588735
1587.9885322029147	0.02374587884824439	14.497294951375912	0.0229897972486668	0.005944407854504329	4.65217447280884	95.39134749588735
1261.3841275471439	0.02342048643486256	11.009360816109549	0.022989455721338724	0.004472595497268612	4.65217447280884	95.39134749588735
1001.9530273437505	0.023184134033402408	7.4368066615911115	0.022989114194010653	0.0030007831400328945	4.65217447280884	95.39134749588735
795.8795794866109	0.02326157937222212	5.621177352559446	0.023149720576767792	0.002278488996629878	4.65217447280884	95.39134749588735
632.189621426703	0.023363363713799715	3.8292543662404652	0.023311204998967206	0.0015602837945128975	4.65217447280884	95.39134749588735
502.1660659988852	0.023487789274819346	2.0545948621142798	0.023472689421166617	0.0008420785923959205	4.65217447280884	95.39134749588735
398.88468474333143	0.02366800002711763	0.8890469859621727	0.02366515080035679	0.00036723681734345795	4.65217447280884	95.39134749588735
316.8453674907219	0.02387408664029528	0.05218640181900208	0.023874076737308875	2.1745100892127e-05	4.65217447280884	95.39134749588735
251.67922143947135	0.024085178630841548	-0.7701779428526051	0.024083002674260955	-0.00032374661555920384	4.65217447280884	95.39134749588735
199.91591168279678	0.02430532696582388	-1.4401920262345513	0.02429764903588473	-0.0006108766197649242	4.65217447280884	95.39134749588735
158.79885322029148	0.024536800681857672	-1.8027519502040803	0.02452465620549919	-0.0007718974694097837	4.65217447280884	95.39134749588735
126.13841275471438	0.024769238511205185	-2.158521277165129	0.02475166337511365	-0.0009329183190546441	4.65217447280884	95.39134749588735
100.19530273437505	0.025002613565123198	-2.507662336794274	0.024978670544728108	-0.0010939391686995044	4.65217447280884	95.39134749588735
79.58795794866109	0.025246667342468047	-2.6476133658726284	0.025219717226049546	-0.0011662225085043955	4.65217447280884	95.39134749588735
63.2189621426703	0.025491067540845326	-2.7807781754828764	0.025461051030212747	-0.0012366910725159427	4.65217447280884	95.39134749588735
50.21660659988852	0.025735602819629565	-2.9114130613101574	0.025702384834375945	-0.0013071596365274896	4.65217447280884	95.39134749588735
39.888468474333145	0.02597897425300926	-2.9475182614414175	0.025944605484831972	-0.0013358703061842714	4.65217447280884	95.39134749588735
31.684536749072194	0.02622156270238329	-2.9258323513123647	0.026187381462812576	-0.0013384329180646116	4.65217447280884	95.39134749588735
25.167922143947134	0.026464154839262247	-2.9045440198380037	0.02643015744079318	-0.001340995529944952	4.65217447280884	95.39134749588735
19.99159116827968	0.02669677689381726	-2.8521735758204723	0.026663706010814938	-0.001328411941788584	4.65217447280884	95.39134749588735
15.879885322029146	0.026907925444202247	-2.733176621997214	0.026877315820352073	-0.0012831001534560627	4.65217447280884	95.39134749588735
12.613841275471438	0.027119188253357133	-2.6160331799815117	0.027090925629889212	-0.0012377883651235409	4.65217447280884	95.39134749588735
10.019530273437505	0.02733056267165176	-2.500701235501938	0.027304535439426347	-0.0011924765767910193	4.65217447280884	95.39134749588735
7.958795794866109	0.027447487060607234	-2.3470779618063538	0.027424460894803597	-0.001124050964854243	4.65217447280884	95.39134749588735
6.32189621426703	0.027562674456459074	-2.193929688255519	0.027542470406196718	-0.0010551526508138778	4.65217447280884	95.39134749588735
5.021660659988852	0.027678057137165448	-2.0420572084509803	0.02766047991758984	-0.000986254336773513	4.65217447280884	95.39134749588735
3.9888468474333143	0.02779767766246341	-1.8586361485441676	0.027783053064755574	-0.0009015796288699074	4.65217447280884	95.39134749588735
3.1684536749072194	0.027919634849446543	-1.660446375056925	0.027907911443953982	-0.0008090049214017718	4.65217447280884	95.39134749588735
2.5167922143947137	0.028041923190274955	-1.4639828439552247	0.028032769823152393	-0.0007164302139336363	4.65217447280884	95.39134749588735
1.9991591168279679	0.028136324875098314	-1.3440496168800236	0.02812858377297638	-0.0006599639412316057	4.65217447280884	95.39134749588735
1.5879885322029146	0.028179883922500724	-1.3597450077032862	0.028171948711085453	-0.0006687030025246144	4.65217447280884	95.39134749588735
1.2613841275471438	0.028223445078024274	-1.3753919499525427	0.02821531364919453	-0.0006774420638176231	4.65217447280884	95.39134749588735
1.0019530273437505	0.028267008331922736	-1.390990665285797	0.028258678587303607	-0.0006861811251106318	4.65217447280884	95.39134749588735
0.7958795794866117	0.028334440733441487	-1.493918108792608	0.028324809800402712	-0.0007387025435982183	4.65217447280884	95.39134749588735
0.632189621426703	0.028402408398807696	-1.597968557937637	0.028391362826686282	-0.00079203516091036	4.65217447280884	95.39134749588735
0.5021660659988852	0.02847046928617738	-1.701521865735446	0.028457915852969848	-0.0008453677782225012	4.65217447280884	95.39134749588735
0.39888468474333105	0.02856015902144298	-1.89530083445835	0.02854453466758223	-0.0009445760643310736	4.65217447280884	95.39134749588735
0.31684536749072195	0.02866106045743026	-2.1330252786854964	0.02864120139048862	-0.0010667565110863704	4.65217447280884	95.39134749588735
0.25167922143947163	0.02876245182164774	-2.369077743873837	0.02873786811339501	-0.0011889369578416671	4.65217447280884	95.39134749588735
0.1999159116827968	0.028882589390856896	-2.663596465541477	0.02885138472702435	-0.0013422254855520233	4.65217447280884	95.39134749588735
0.15879885322029147	0.02903926638371119	-3.071147900831917	0.028997559488683388	-0.0015558071231379265	4.65217447280884	95.39134749588735
0.12613841275471424	0.02919739684699919	-3.47430502794899	0.02914373425034243	-0.0017693887607238316	4.65217447280884	95.39134749588735
0.10019530273437505	0.02935695729349173	-3.8730992562527686	0.029289909012001465	-0.0019829703983097347	4.65217447280884	95.39134749588735
0.07958795794866116	0.02964763521401838	-4.57724500568186	0.02955307855278267	-0.0023659716474547544	4.65217447280884	95.39134749588735
0.0632189621426703	0.029942904346123084	-5.268074769567132	0.029816425893541422	-0.0027492303679447047	4.65217447280884	95.39134749588735
0.05021660659988852	0.030242441133547453	-5.945316709608172	0.030079773234300167	-0.0031324890884346515	4.65217447280884	95.39134749588735
0.039888468474333104	0.03063312590626164	-6.867075080312975	0.030413370429852548	-0.003662690525481057	4.65217447280884	95.39134749588735
0.03168453674907219	0.03107781670019944	-7.894974193251336	0.030783246100470646	-0.004268776214450002	4.65217447280884	95.39134749588735
0.025167922143947162	0.03153222597061122	-8.893561099669077	0.03115312177108874	-0.004874861903418948	4.65217447280884	95.39134749588735
0.019991591168279678	0.032084169233003904	-10.109461187821594	0.03158603710915648	-0.005631711561419334	4.65217447280884	95.39134749588735
0.015879885322029146	0.03284012222018285	-11.772687046593973	0.032149322400575726	-0.006700350484891624	4.65217447280884	95.39134749588735
0.012613841275471424	0.03362249096122475	-13.359795796982187	0.03271260769199498	-0.007768989408363925	4.65217447280884	95.39134749588735
0.010019530273437504	0.034429474703737646	-14.873622087952256	0.03327589298341423	-0.008837628331836215	4.65217447280884	95.39134749588735
