Freq(Hz)	Zmod(Ohm)	Zphz(Deg)	Zreal(Ohm)	Zimag(Ohm)	Capacity(Ah)	SOH
10019.530273437504	0.04569150134921072	48.90843963623048	0.0300313898720719	0.0344358667365371	4.5283670425415	92.85271579317866
7958.795794866109	0.040986630212854314	45.70785171505236	0.028621668912124358	0.029337755962070375	4.5283670425415	92.85271579317866
6321.89621426703	0.03644242733645629	41.69375957045821	0.027211947952176817	0.024239645187603652	4.5283670425415	92.85271579317866
5021.660659988852	0.03212714206785022	36.57009005859174	0.025802226992229282	0.01914153441313695	4.5283670425415	92.85271579317866
3988.8468474333145	0.029416876144348184	31.800414028874123	0.02500107606927034	0.015501574032029107	4.5283670425415	92.85271579317866
3168.4536749072195	0.02760285042790797	27.288028477491387	0.02453101324437411	0.012654909756683427	4.5283670425415	92.85271579317866
2516.7922143947135	0.025983283366633147	22.17785535860031	0.024060950419477877	0.009808245481337744	4.5283670425415	92.85271579317866
1999.1591168279679	0.02485308879415816	17.255755809653728	0.023734454988421055	0.007372358443057754	4.5283670425415	92.85271579317866
1587.9885322029147	0.024468858375891522	13.96161705535672	0.023745988941383432	0.00590364628133601	4.5283670425415	92.85271579317866
1261.3841275471439	0.02416792367417367	10.573981387803137	0.023757522894345812	0.004434934119614261	4.5283670425415	92.85271579317866
1001.9530273437505	0.02395342430872989	7.113362136714223	0.02376905684730819	0.002966221957892511	4.5283670425415	92.85271579317866
795.8795794866109	0.02404205578063686	5.392479434019711	0.02393565306006964	0.002259415576478361	4.5283670425415	92.85271579317866
632.189621426703	0.02415331691269232	3.695474972036235	0.024103095203542715	0.0015567657158047	4.5283670425415	92.85271579317866
502.1660659988852	0.024285561492518024	2.0154908842339005	0.024270537347015786	0.0008541158551310418	4.5283670425415	92.85271579317866
398.88468474333143	0.024461409014908928	0.9298353786823361	0.024458187880775546	0.0003969591708879327	4.5283670425415	92.85271579317866
316.8453674907219	0.024656679547196147	0.16332338123792658	0.02465657937302421	7.028452801191608e-05	4.5283670425415	92.85271579317866
251.67922143947135	0.024856293219314967	-0.5910105690457864	0.02485497086527287	-0.00025639011486410044	4.5283670425415	92.85271579317866
199.91591168279678	0.025064742255332687	-1.1968582284377587	0.0250592738888823	-0.0005235422506746897	4.5283670425415	92.85271579317866
158.79885322029148	0.025285020248728942	-1.5004358898839427	0.025276350667636685	-0.0006620769632716812	4.5283670425415	92.85271579317866
126.13841275471438	0.025505995805299244	-1.7987616120207293	0.02549342744639107	-0.0008006116758686734	4.5283670425415	92.85271579317866
100.19530273437505	0.02572765095087755	-2.091954751832089	0.025710504225145456	-0.0009391463884656656	4.5283670425415	92.85271579317866
79.58795794866109	0.025942381581209865	-2.160517970654409	0.02592393996891314	-0.0009780074607509653	4.5283670425415	92.85271579317866
63.2189621426703	0.026156995178184563	-2.223500007451055	0.02613730124966999	-0.0010148301018249508	4.5283670425415	92.85271579317866
50.21660659988852	0.02637163986717716	-2.2854568682661096	0.026350662530426838	-0.001051652742898936	4.5283670425415	92.85271579317866
39.888468474333145	0.026566672456048823	-2.241227907467403	0.026546349888942833	-0.0010389383816223514	4.5283670425415	92.85271579317866
31.684536749072194	0.02674948967232734	-2.132160260486095	0.02673097014872142	-0.0009952048221905658	4.5283670425415	92.85271579317866
25.167922143947134	0.02693240250334146	-2.0245737053935784	0.026915590408500008	-0.0009514712627587804	4.5283670425415	92.85271579317866
19.99159116827968	0.027101740620021374	-1.9224700759025737	0.027086486036486567	-0.0009091858061665366	4.5283670425415	92.85271579317866
15.879885322029146	0.027241622045622763	-1.8301954643955927	0.027227725216285144	-0.0008700294380250803	4.5283670425415	92.85271579317866
12.613841275471438	0.027381573405711297	-1.738863876986868	0.02736896439608372	-0.0008308730698836239	4.5283670425415	92.85271579317866
10.019530273437505	0.027521593633405478	-1.6484613880602446	0.0275102035758823	-0.0007917167017421676	4.5283670425415	92.85271579317866
7.958795794866109	0.027587182824708026	-1.5015019608397766	0.027577710446172438	-0.0007228711855767122	4.5283670425415	92.85271579317866
6.32189621426703	0.027651430809858733	-1.3540567723382813	0.02764370941286325	-0.0006534184949789778	4.5283670425415	92.85271579317866
5.021660659988852	0.027715861064390817	-1.2072961387511432	0.027709708379554058	-0.0005839658043812438	4.5283670425415	92.85271579317866
3.9888468474333143	0.027773042749850613	-1.134598552141929	0.02776759749186976	-0.0005499391916729622	4.5283670425415	92.85271579317866
3.1684536749072194	0.02782654321957368	-1.0988748610547947	0.027821425609855135	-0.0005336521208603595	4.5283670425415	92.85271579317866
2.5167922143947137	0.02788005446527135	-1.0632882878474583	0.027875253727840506	-0.0005173650500477568	4.5283670425415	92.85271579317866
1.9991591168279679	0.02793514657690618	-1.0446992657881982	0.027930503068449155	-0.0005093256488587353	4.5283670425415	92.85271579317866
1.5879885322029146	0.02799307835252243	-1.0565688587296975	0.027988318881308184	-0.000516180054503766	4.5283670425415	92.85271579317866
1.2613841275471438	0.02805101132454716	-1.0683894242976593	0.028046134694167214	-0.0005230344601487966	4.5283670425415	92.85271579317866
1.0019530273437505	0.02810894548558293	-1.0801612646274745	0.028103950507026246	-0.0005298888657938272	4.5283670425415	92.85271579317866
0.7958795794866117	0.028189153497905257	-1.2134646773106232	0.028182831638714056	-0.0005969721537577476	4.5283670425415	92.85271579317866
0.632189621426703	0.028269929656495944	-1.3482534128428467	0.028262103068297358	-0.0006651713615047033	4.5283670425415	92.85271579317866
0.5021660659988852	0.028350861377054573	-1.4822733378570334	0.02834137449788066	-0.0007333705692516584	4.5283670425415	92.85271579317866
0.39888468474333105	0.028444247332006043	-1.6691449098217312	0.028432178185596808	-0.0008285227255820482	4.5283670425415	92.85271579317866
0.31684536749072195	0.028544145553767802	-1.8814935137874367	0.02852875663133606	-0.0009371715236182848	4.5283670425415	92.85271579317866
0.25167922143947163	0.028644433113958177	-2.092358081963012	0.02862533507707531	-0.0010458203216545214	4.5283670425415	92.85271579317866
0.1999159116827968	0.028759052794598276	-2.3428733027487962	0.028735012686844363	-0.00117565451106372	4.5283670425415	92.85271579317866
0.15879885322029147	0.028901464488274152	-2.670437768223051	0.02887007885520909	-0.001346549836055397	4.5283670425415	92.85271579317866
0.12613841275471424	0.0290448115444968	-2.9947794406399937	0.029005145023573823	-0.001517445161047076	4.5283670425415	92.85271579317866
0.10019530273437505	0.02918908018262272	-3.3159251666100134	0.029140211191938555	-0.001688340486038753	4.5283670425415	92.85271579317866
0.07958795794866116	0.02943680742363125	-3.8354809947227673	0.029370875927598454	-0.0019690806335875347	4.5283670425415	92.85271579317866
0.0632189621426703	0.029687072196748057	-4.346623907148646	0.029601685946861998	-0.002249987715140811	4.5283670425415	92.85271579317866
0.05021660659988852	0.02993966005219214	-4.849181678503779	0.02983249596612554	-0.002530894796694085	4.5283670425415	92.85271579317866
0.039888468474333104	0.030254273502869418	-5.55504532504586	0.030112189083729177	-0.0029286744052843977	4.5283670425415	92.85271579317866
0.03168453674907219	0.0306050985771217	-6.35345572307943	0.030417126442327698	-0.003386809399240783	4.5283670425415	92.85271579317866
0.025167922143947162	0.03096173124318082	-7.133621762255966	0.030722063800926215	-0.003844944393197168	4.5283670425415	92.85271579317866
0.019991591168279678	0.031391952260483684	-8.067168112678468	0.031081304879095512	-0.004405355120441511	4.5283670425415	92.85271579317866
0.015879885322029146	0.031974779418497724	-9.318216108552354	0.031552849427027095	-0.0051772784256732506	4.5283670425415	92.85271579317866
0.012613841275471424	0.03257230128035741	-10.523922039878348	0.03202439397495868	-0.0059492017309049966	4.5283670425415	92.85271579317866
0.010019530273437504	0.0331837240561521	-11.685695732106545	0.03249593852289027	-0.0067211250361367365	4.5283670425415	92.85271579317866
