Freq(Hz)	Zmod(Ohm)	Zphz(Deg)	Zreal(Ohm)	Zimag(Ohm)	Capacity(Ah)	SOH
10019.530273437504	0.04516730085015296	49.63523864746093	0.0292526660492553	0.0344146276327229	4.72929668426514	96.97271373992623
7958.795794866109	0.04041371499448635	46.51097449862657	0.02781335008459417	0.029320401032853834	4.72929668426514	96.97271373992623
6321.89621426703	0.035811970113591864	42.56938822096287	0.026374034119933037	0.024226174432984766	4.72929668426514	96.97271373992623
5021.660659988852	0.03142883385319774	37.49835938677092	0.02493471815527191	0.019131947833115722	4.72929668426514	96.97271373992623
3988.8468474333145	0.028666550535102326	32.733648828301426	0.024114112049459922	0.015500990924701148	4.72929668426514	96.97271373992623
3168.4536749072195	0.02681068069412112	28.192016568239303	0.023630110537973127	0.012666115238907724	4.72929668426514	96.97271373992623
2516.7922143947135	0.025147477690947675	23.013211075574937	0.023146109026486332	0.0098312395531143	4.72929668426514	96.97271373992623
1999.1591168279679	0.023977577467441797	17.98570121390263	0.022805879701440088	0.0074037876962143884	4.72929668426514	96.97271373992623
1587.9885322029147	0.023563983721219997	14.58959006376355	0.022804161944528556	0.005935615117377188	4.72929668426514	96.97271373992623
1261.3841275471439	0.02323595282669824	11.084951550085716	0.02280244418761702	0.004467442538539981	4.72929668426514	96.97271373992623
1001.9530273437505	0.022997146476444578	7.493818235514871	0.02280072643070549	0.0029992699597027744	4.72929668426514	96.97271373992623
795.8795794866109	0.023079373543643915	5.699919350008006	0.022965262422367655	0.00229220527851209	4.72929668426514	96.97271373992623
632.189621426703	0.023185240644704994	3.9305708323876125	0.023130705399082293	0.001589292765271937	4.72929668426514	96.97271373992623
502.1660659988852	0.02331300493497863	2.1789594035529283	0.02329614837579693	0.0008863802520317869	4.72929668426514	96.97271373992623
398.88468474333143	0.023491418541188545	1.064229735881935	0.023487366328100272	0.00043631186887194547	4.72929668426514	96.97271373992623
316.8453674907219	0.023692591040915506	0.2917270846338745	0.023692283933811092	0.00012063263135053242	4.72929668426514	96.97271373992623
251.67922143947135	0.0238979975018642	-0.4676321274979921	0.023897201539521917	-0.00019504660617088065	4.72929668426514	96.97271373992623
199.91591168279678	0.0241084177368035	-1.0693029718597704	0.024104219350565812	-0.00044990584796181265	4.72929668426514	96.97271373992623
158.79885322029148	0.02432253385525756	-1.3507324607316398	0.024315775327279757	-0.0005733440270929016	4.72929668426514	96.97271373992623
126.13841275471438	0.02453722654129394	-1.6272436925336808	0.0245273313039937	-0.0006967822062239911	4.72929668426514	96.97271373992623
100.19530273437505	0.024752480792197593	-1.898951928740715	0.02473888728070765	-0.0008202203853550806	4.72929668426514	96.97271373992623
79.58795794866109	0.02495147825617365	-1.8893305029649778	0.024937913951389248	-0.0008226268421417012	4.72929668426514	96.97271373992623
63.2189621426703	0.025150139236789937	-1.8742445798262977	0.025136684384530084	-0.0008225580723828222	4.72929668426514	96.97271373992623
50.21660659988852	0.025348801933645214	-1.859395117353904	0.025335454817670917	-0.0008224893026239432	4.72929668426514	96.97271373992623
39.888468474333145	0.02550757075857604	-1.7793219184313862	0.02549527180978662	-0.000792010952489424	4.72929668426514	96.97271373992623
31.684536749072194	0.025641449121616394	-1.6593262036105838	0.02563069684339352	-0.0007424906588635938	4.72929668426514	96.97271373992623
25.167922143947134	0.025775438783996237	-1.5405775310505296	0.02576612187700042	-0.0006929703652377638	4.72929668426514	96.97271373992623
19.99159116827968	0.02588962907165997	-1.4173016430062026	0.025881708564271296	-0.0006403555748698429	4.72929668426514	96.97271373992623
15.879885322029146	0.025960931524437073	-1.2824936529147755	0.025954428171451077	-0.000581054136459896	4.72929668426514	96.97271373992623
12.613841275471438	0.026032376905857288	-1.1484248801413097	0.02602714777863086	-0.0005217526980499489	4.72929668426514	96.97271373992623
10.019530273437505	0.02610396404235274	-1.015090717208101	0.026099867385810646	-0.00046245125964000167	4.72929668426514	96.97271373992623
7.958795794866109	0.026135688147542687	-0.9179197891554756	0.026132334179999436	-0.0004186946983621171	4.72929668426514	96.97271373992623
6.32189621426703	0.026166668672423742	-0.8217066148873167	0.02616397776165091	-0.00037525604623877873	4.72929668426514	96.97271373992623
5.021660659988852	0.026197722808380067	-0.725721267948567	0.02619562134330239	-0.0003318173941154406	4.72929668426514	96.97271373992623
3.9888468474333143	0.02624539328052889	-0.7379505376522995	0.02624321644143752	-0.0003380225695045021	4.72929668426514	96.97271373992623
3.1684536749072194	0.026301389052315043	-0.8040567702814764	0.026298799231460095	-0.0003690867981809802	4.72929668426514	96.97271373992623
2.5167922143947137	0.026357419687415232	-0.869882032805565	0.026354382021482672	-0.0004001510268574583	4.72929668426514	96.97271373992623
1.9991591168279679	0.02640773824505066	-0.9356937555360864	0.0264042168580535	-0.000431243935603406	4.72929668426514	96.97271373992623
1.5879885322029146	0.026447714232830533	-1.00176018581106	0.026443671925270258	-0.00046238863539266176	4.72929668426514	96.97271373992623
1.2613841275471438	0.026487725278950058	-1.0676271100856576	0.026483126992487012	-0.0004935333351819176	4.72929668426514	96.97271373992623
1.0019530273437505	0.026527771224776904	-1.1332952573844617	0.02652258205970377	-0.0005246780349711734	4.72929668426514	96.97271373992623
0.7958795794866117	0.026588034644120902	-1.2974652775786462	0.02658121779149494	-0.0006020356784162783	4.72929668426514	96.97271373992623
0.632189621426703	0.02664889246885581	-1.462712286533406	0.026640208902337262	-0.0006802495545536128	4.72929668426514	96.97271373992623
0.5021660659988852	0.026709970949431304	-1.6272049081000075	0.026699200013179585	-0.0007584634306909466	4.72929668426514	96.97271373992623
0.39888468474333105	0.026797247385109774	-1.8199896266902733	0.02678372926711082	-0.0008510663692591788	4.72929668426514	96.97271373992623
0.31684536749072195	0.026897859288004436	-2.025903072550306	0.02688104670137923	-0.0009508746055896101	4.72929668426514	96.97271373992623
0.25167922143947163	0.02699881600866794	-2.230279196679647	0.026978364135647644	-0.0010506828419200415	4.72929668426514	96.97271373992623
0.1999159116827968	0.027117497729562914	-2.4763504308772775	0.027092173808580068	-0.0011716660951559877	4.72929668426514	96.97271373992623
0.15879885322029147	0.027270580576192	-2.803215854102399	0.027237948434905145	-0.0013336903763725794	4.72929668426514	96.97271373992623
0.12613841275471424	0.02742454103592399	-3.1264216751220575	0.02738372306123022	-0.0014957146575891723	4.72929668426514	96.97271373992623
0.10019530273437505	0.027579364411065482	-3.446008784257494	0.027529497687555297	-0.001657738938805764	4.72929668426514	96.97271373992623
0.07958795794866116	0.02782066032719728	-3.9852925904822905	0.02775338783872141	-0.001933547132810369	4.72929668426514	96.97271373992623
0.0632189621426703	0.028064510354029203	-4.51558897619909	0.02797739670406149	-0.0022095282471562934	4.72929668426514	96.97271373992623
0.05021660659988852	0.028310722931002473	-5.036705601387961	0.028201405569401573	-0.0024855093615022156	4.72929668426514	96.97271373992623
0.039888468474333104	0.0286186341281579	-5.757338008479752	0.028474272544296683	-0.002870892271485693	4.72929668426514	96.97271373992623
0.03168453674907219	0.028962454772678847	-6.567959194537816	0.028772370855462262	-0.003312772526934734	4.72929668426514	96.97271373992623
0.025167922143947162	0.029311936051447073	-7.359405891154066	0.029070469166627845	-0.0037546527823837743	4.72929668426514	96.97271373992623
0.019991591168279678	0.02973713006445758	-8.312368385304094	0.029424729736573865	-0.004299091113253203	4.72929668426514	96.97271373992623
0.015879885322029146	0.030319607364025013	-9.59858749761887	0.02989513735096884	-0.005055625923201572	4.72929668426514	96.97271373992623
0.012613841275471424	0.030916784008552734	-10.835722139534878	0.030365544965363818	-0.005812160733149947	4.72929668426514	96.97271373992623
0.010019530273437504	0.03152782473687413	-12.025440040079483	0.03083595257975879	-0.006568695543098316	4.72929668426514	96.97271373992623
