Freq(Hz)	Zmod(Ohm)	Zphz(Deg)	Zreal(Ohm)	Zimag(Ohm)	Capacity(Ah)	SOH
10019.530273437504	0.045749198645353255	48.89722061157227	0.0300760630294672	0.0344734623926798	4.51061201095581	92.4886545573651
7958.795794866109	0.04103314289415879	45.69408459840444	0.028661206010496282	0.02936416329126961	4.51061201095581	92.4886545573651
6321.89621426703	0.036478239681164995	41.675669019964914	0.027246348991525365	0.024254864189859424	4.51061201095581	92.4886545573651
5021.660659988852	0.03215305024541517	36.54478769897231	0.02583149197255446	0.019145565088449258	4.51061201095581	92.4886545573651
3988.8468474333145	0.029443468467963915	31.783714560262542	0.025028197710666986	0.015508293096912668	4.51061201095581	92.4886545573651
3168.4536749072195	0.02763427025736337	27.293982720308996	0.024557619714421983	0.012671866737731675	4.51061201095581	92.4886545573651
2516.7922143947135	0.026017714468669673	22.211623432993786	0.02408704171817698	0.009835440378550678	4.51061201095581	92.4886545573651
1999.1591168279679	0.024886847555377307	17.318056315657966	0.023758653009334444	0.007408210878925674	4.51061201095581	92.4886545573651
1587.9885322029147	0.024497221502335388	14.043443173150903	0.02376504893333511	0.005944435257505206	4.51061201095581	92.4886545573651
1261.3841275471439	0.024190037233948088	10.674395257893188	0.02377144485733578	0.004480659636084733	4.51061201095581	92.4886545573651
1001.9530273437505	0.02396846472723114	7.230935753919655	0.02377784078133645	0.00301688401466426	4.51061201095581	92.4886545573651
795.8795794866109	0.02405328672770508	5.527910403427037	0.023941424297815428	0.002317068190012207	4.51061201095581	92.4886545573651
632.189621426703	0.024160334163346422	3.8480595662465222	0.024105865339601563	0.0016214200916358176	4.51061201095581	92.4886545573651
502.1660659988852	0.024287956390563862	2.1844439932940505	0.024270306381387698	0.0009257719932594311	4.51061201095581	92.4886545573651
398.88468474333143	0.02445302639163545	1.111102185554826	0.024448428573917366	0.00047417293900075435	4.51061201095581	92.4886545573651
316.8453674907219	0.02463429315801919	0.3542028003030208	0.024633822432825803	0.0001522883555602724	4.51061201095581	92.4886545573651
251.67922143947135	0.024819795732769385	-0.39151102623088235	0.02481921629173424	-0.00016959622788020957	4.51061201095581	92.4886545573651
199.91591168279678	0.025013472489158393	-0.991395397763496	0.02500972809389094	-0.00043278936623500905	4.51061201095581	92.4886545573651
158.79885322029148	0.025217722613106612	-1.2932684175280187	0.025211298850134053	-0.0005691608567162531	4.51061201095581	92.4886545573651
126.13841275471438	0.025422661495674886	-1.5902826133414734	0.02541286960637717	-0.0007055323471974978	4.51061201095581	92.4886545573651
100.19530273437505	0.025628272613700077	-1.8825387731263887	0.025614440362620283	-0.0008419038376787425	4.51061201095581	92.4886545573651
79.58795794866109	0.02582478998467864	-1.9790859213547218	0.025809385482932372	-0.0008918513027170569	4.51061201095581	92.4886545573651
63.2189621426703	0.02602118025296239	-2.0702961131292676	0.026004195101992228	-0.0009400313051612553	4.51061201095581	92.4886545573651
50.21660659988852	0.02621763547618642	-2.1601396087255105	0.026199004721052084	-0.0009882113076054536	4.51061201095581	92.4886545573651
39.888468474333145	0.026398370814065104	-2.129039435880606	0.02638014783803452	-0.0009807046855843057	4.51061201095581	92.4886545573651
31.684536749072194	0.026569307512353934	-2.023892446750423	0.026552733232185283	-0.0009383280803804765	4.51061201095581	92.4886545573651
25.167922143947134	0.026740332547016982	-1.9200901038077225	0.026725318626336047	-0.0008959514751766472	4.51061201095581	92.4886545573651
19.99159116827968	0.026895067658545754	-1.8145800427078995	0.026881580721192507	-0.0008516350672471777	4.51061201095581	92.4886545573651
15.879885322029146	0.02701451202725482	-1.7036241159895182	0.02700257111717107	-0.0008031270963016954	4.51061201095581	92.4886545573651
12.613841275471438	0.02713405681393708	-1.5936454591318787	0.02712356151314963	-0.0007546191253562128	4.51061201095581	92.4886545573651
10.019530273437505	0.027253700697181728	-1.4846320172675938	0.02724455190912819	-0.0007061111544107302	4.51061201095581	92.4886545573651
7.958795794866109	0.02732995586748405	-1.3644496196058384	0.027322206644561225	-0.0006507778349945588	4.51061201095581	92.4886545573651
6.32189621426703	0.027405441532373346	-1.24468503439854	0.02739897511996861	-0.0005953049299938011	4.51061201095581	92.4886545573651
5.021660659988852	0.02748104628164752	-1.1255789141831967	0.027475743595375992	-0.0005398320249930437	4.51061201095581	92.4886545573651
3.9888468474333143	0.02753373790585463	-1.0797744269873193	0.027528848645827622	-0.0005188596182116796	4.51061201095581	92.4886545573651
3.1684536749072194	0.027574916921830277	-1.0704800516188109	0.027570104280724192	-0.0005151632710464704	4.51061201095581	92.4886545573651
2.5167922143947137	0.02761609666126213	-1.0612133946206324	0.027611359915620762	-0.0005114669238812612	4.51061201095581	92.4886545573651
1.9991591168279679	0.027662519908775395	-1.071603338651681	0.02765768184114228	-0.0005173421281352972	4.51061201095581	92.4886545573651
1.5879885322029146	0.027718422897250787	-1.1173231891869377	0.027713152575645838	-0.0005405018314595733	4.51061201095581	92.4886545573651
1.2613841275471438	0.027774343464189527	-1.1628589649005867	0.0277686233101494	-0.0005636615347838493	4.51061201095581	92.4886545573651
1.0019530273437505	0.027830281503628145	-1.2082117180502374	0.027824094044652956	-0.0005868212381081254	4.51061201095581	92.4886545573651
0.7958795794866117	0.027895875142113	-1.30839895592122	0.02788860193030927	-0.0006369712058703996	4.51061201095581	92.4886545573651
0.632189621426703	0.027961733357243432	-1.40913179302166	0.027953277256159814	-0.0006876212488271004	4.51061201095581	92.4886545573651
0.5021660659988852	0.028027677595335167	-1.5093909252070963	0.028017952582010355	-0.000738271291783801	4.51061201095581	92.4886545573651
0.39888468474333105	0.028129235033340676	-1.6849550704531182	0.0281170723888828	-0.0008271057001646145	4.51061201095581	92.4886545573651
0.31684536749072195	0.028248920065414233	-1.8968806261342972	0.028233440209183443	-0.0009350608625252412	4.51061201095581	92.4886545573651
0.25167922143947163	0.028368988310067896	-2.1070151389123835	0.028349808029484086	-0.0010430160248858678	4.51061201095581	92.4886545573651
0.1999159116827968	0.028498722255305798	-2.358379754910888	0.02847458342142735	-0.0011727187050767228	4.51061201095581	92.4886545573651
0.15879885322029147	0.02864722569501014	-2.6901947250216707	0.028615654213963386	-0.0013445720240020161	4.51061201095581	92.4886545573651
0.12613841275471424	0.028796679998223777	-3.018576385189257	0.028756725006499423	-0.0015164253429273112	4.51061201095581	92.4886545573651
0.10019530273437505	0.028947070436968543	-3.3435565068208377	0.02889779579903546	-0.0016882786618526045	4.51061201095581	92.4886545573651
0.07958795794866116	0.029188721783562712	-3.8750258294039406	0.029121991422909582	-0.0019725858466006496	4.51061201095581	92.4886545573651
0.0632189621426703	0.029432982285439325	-4.398036144468887	0.029346313373729713	-0.0022570639303834037	4.51061201095581	92.4886545573651
0.05021660659988852	0.029679654804382186	-4.912395078935513	0.02957063532454984	-0.0025415420141661547	4.51061201095581	92.4886545573651
0.039888468474333104	0.029991920576809238	-5.6286267714390705	0.02984731514002674	-0.0029416116020922955	4.51061201095581	92.4886545573651
0.03168453674907219	0.030342283722530956	-6.436395115211638	0.03015103363754824	-0.0034013750287202153	4.51061201095581	92.4886545573651
0.025167922143947162	0.030698539342774982	-7.225569063098207	0.030454752135069745	-0.0038611384553481343	4.51061201095581	92.4886545573651
0.019991591168279678	0.031136446093694176	-8.166890806327627	0.030820675384611314	-0.0044231486728277085	4.51061201095581	92.4886545573651
0.015879885322029146	0.03174348987470422	-9.422093328539606	0.03131524193046431	-0.005196611613536187	4.51061201095581	92.4886545573651
0.012613841275471424	0.03236519280775612	-10.629634806675261	0.031809808476317314	-0.005970074554244673	4.51061201095581	92.4886545573651
0.010019530273437504	0.033000726408957425	-11.79116586140323	0.03230437502217031	-0.006743537494953151	4.51061201095581	92.4886545573651
