Freq(Hz)	Zmod(Ohm)	Zphz(Deg)	Zreal(Ohm)	Zimag(Ohm)	Capacity(Ah)	SOH
10019.530273437504	0.04575930163264269	49.41344070434576	0.0297708225424683	0.034750709504297	4.64034557342529	95.14879970276712
7958.795794866109	0.04096795710194626	46.256124813502176	0.028326713522632656	0.029596804052356894	4.64034557342529	95.14879970276712
6321.89621426703	0.0363335893746277	42.27855149686569	0.026882604502797013	0.02444289860041679	4.64034557342529	95.14879970276712
5021.660659988852	0.031924634831406104	37.171586492887684	0.025438495482961378	0.019288993148476707	4.64034557342529	95.14879970276712
3988.8468474333145	0.029154664507771013	32.391138231215756	0.024618513293523523	0.015618042956058498	4.64034557342529	95.14879970276712
3168.4536749072195	0.02730034048908463	27.85071269715977	0.024138082762344828	0.012753883776252044	4.64034557342529	95.14879970276712
2516.7922143947135	0.025641590467136408	22.68663037914586	0.023657652231166133	0.009889724596445588	4.64034557342529	95.14879970276712
1999.1591168279679	0.024479717651165786	17.685130389833216	0.023322814834894807	0.007436590916408437	4.64034557342529	95.14879970276712
1587.9885322029147	0.024077834378961712	14.309860634463446	0.023330776429355396	0.0059512166473877585	4.64034557342529	95.14879970276712
1261.3841275471439	0.023762164057440846	10.832543308092342	0.02333873802381599	0.004465842378367073	4.64034557342529	95.14879970276712
1001.9530273437505	0.023536175840965894	7.275097614787594	0.023346699618276578	0.0029804681093463874	4.64034557342529	95.14879970276712
795.8795794866109	0.023623010568071794	5.506165479379403	0.02351401113520625	0.0022666955315234277	4.64034557342529	95.14879970276712
632.189621426703	0.023733328420270778	3.7618509771946256	0.023682191973874722	0.0015571323697670643	4.64034557342529	95.14879970276712
502.1660659988852	0.02386542806780694	2.0352600649974426	0.02385037281254319	0.0008475692080107041	4.64034557342529	95.14879970276712
398.88468474333143	0.024049328186440132	0.920602339983303	0.024046223894952548	0.000386396962872422	4.64034557342529	95.14879970276712
316.8453674907219	0.024256849536850308	0.13521998783876207	0.024256781984460556	5.724693655348532e-05	4.64034557342529	95.14879970276712
251.67922143947135	0.024468850843173087	-0.6366960269152554	0.024467340073968568	-0.00027190308976545135	4.64034557342529	95.14879970276712
199.91591168279678	0.02468838677922043	-1.2482587248675732	0.024682527968131363	-0.0005378241932073779	4.64034557342529	95.14879970276712
158.79885322029148	0.024916652366585784	-1.5342217472041717	0.024907720036749143	-0.0006671189760530763	4.64034557342529	95.14879970276712
126.13841275471438	0.02514552735123013	-1.8149859779693869	0.025132912105366924	-0.0007964137588987754	4.64034557342529	95.14879970276712
100.19530273437505	0.025374995243406827	-2.0906787875855106	0.025358104173984704	-0.0009257085417444744	4.64034557342529	95.14879970276712
79.58795794866109	0.025587432187559354	-2.1307807678398847	0.025569740106254728	-0.0009513552709355014	4.64034557342529	95.14879970276712
63.2189621426703	0.025799524237350453	-2.1655415460752137	0.025781098801219583	-0.0009748822879649084	4.64034557342529	95.14879970276712
50.21660659988852	0.026011625628384973	-2.1997354510169944	0.025992457496184437	-0.0009984093049943152	4.64034557342529	95.14879970276712
39.888468474333145	0.026183119424938738	-2.1315763124364073	0.026165001944320414	-0.0009738665587817287	4.64034557342529	95.14879970276712
31.684536749072194	0.026329292714434554	-2.000749716544696	0.026313241594901032	-0.0009192233736946886	4.64034557342529	95.14879970276712
25.167922143947134	0.026475601761008376	-1.8713683959722776	0.026461481245481647	-0.0008645801886076487	4.64034557342529	95.14879970276712
19.99159116827968	0.026617859664191636	-1.7455072128720117	0.02660550850906064	-0.0008107836190389529	4.64034557342529	95.14879970276712
15.879885322029146	0.026751197910883498	-1.6254528721966695	0.02674043356583698	-0.0007588164325557476	4.64034557342529	95.14879970276712
12.613841275471438	0.026884652442439146	-1.5065899055715455	0.026875358622613314	-0.0007068492460725421	4.64034557342529	95.14879970276712
10.019530273437505	0.027018221535716872	-1.3889016744864595	0.02701028367938965	-0.0006548820595893366	4.64034557342529	95.14879970276712
7.958795794866109	0.027069430720553126	-1.2915266100161102	0.02706255382877514	-0.0006101309691152228	4.64034557342529	95.14879970276712
6.32189621426703	0.027119030860383805	-1.194905728246756	0.027113133598011298	-0.0005655274554255305	4.64034557342529	95.14879970276712
5.021660659988852	0.027168707839186096	-1.0986379089727403	0.02716371336724746	-0.0005209239417358384	4.64034557342529	95.14879970276712
3.9888468474333143	0.027204315448455522	-1.0432373630105207	0.027199806068723166	-0.0004953068169591272	4.64034557342529	95.14879970276712
3.1684536749072194	0.027232860768168526	-1.008244713859777	0.027228644398256143	-0.00047919709073273	4.64034557342529	95.14879970276712
2.5167922143947137	0.027261416224453338	-0.9733253590548563	0.02725748272778912	-0.0004630873645063327	4.64034557342529	95.14879970276712
1.9991591168279679	0.027297356403282912	-0.9650048236025706	0.027293484771632223	-0.00045973430210341043	4.64034557342529	95.14879970276712
1.5879885322029146	0.027346625884097232	-1.0045116896576518	0.027342423194115464	-0.00047941747848126556	4.64034557342529	95.14879970276712
1.2613841275471438	0.027395908319947294	-1.0438764367532385	0.027391361616598702	-0.0004991006548591207	4.64034557342529	95.14879970276712
1.0019530273437505	0.027445203641044337	-1.083099793421211	0.027440300039081943	-0.0005187838312369759	4.64034557342529	95.14879970276712
0.7958795794866117	0.027532223360696554	-1.2358927899694447	0.02752581848387545	-0.0005938349737306511	4.64034557342529	95.14879970276712
0.632189621426703	0.02762014005923575	-1.3898152923489726	0.027612014682746214	-0.0006699119730285078	4.64034557342529	95.14879970276712
0.5021660659988852	0.027708254827566413	-1.542759917608144	0.02769821088161697	-0.0007459889723263639	4.64034557342529	95.14879970276712
0.39888468474333105	0.02780562928227633	-1.7291324229121712	0.027792967903126853	-0.00083902021378709	4.64034557342529	95.14879970276712
0.31684536749072195	0.027907865143303453	-1.9313283526560792	0.02789201174155065	-0.0009405412622593965	4.64034557342529	95.14879970276712
0.25167922143947163	0.02801044602180883	-2.1320457882310477	0.027991055579974448	-0.001042062310731703	4.64034557342529	95.14879970276712
0.1999159116827968	0.028127926685978705	-2.378665076158021	0.028103690366113775	-0.0011674105779017558	4.64034557342529	95.14879970276712
0.15879885322029147	0.028274387588536044	-2.7142703229682485	0.0282426668769358	-0.0013389403217449374	4.64034557342529	95.14879970276712
0.12613841275471424	0.028421808549226688	-3.046405368168508	0.028381643387757827	-0.0015104700655881205	4.64034557342529	95.14879970276712
0.10019530273437505	0.028570174706469612	-3.3751017801719425	0.028520619898579853	-0.0016819998094313021	4.64034557342529	95.14879970276712
0.07958795794866116	0.028805875624083443	-3.87498723006096	0.028740021826045927	-0.0019466935836357246	4.64034557342529	95.14879970276712
0.0632189621426703	0.029043866194372187	-4.366981970336683	0.028959545978088006	-0.0022115289416153408	4.64034557342529	95.14879970276712
0.05021660659988852	0.0292839634237471	-4.850944248611436	0.02917907013013008	-0.0024763642995949543	4.64034557342529	95.14879970276712
0.039888468474333104	0.029596209673092136	-5.55288288401896	0.029457323854835293	-0.0028638607377077675	4.64034557342529	95.14879970276712
0.03168453674907219	0.02994989904584496	-6.354221677169288	0.02976590674312011	-0.003314701889488932	4.64034557342529	95.14879970276712
0.025167922143947162	0.030309309477207492	-7.1367058509488555	0.030074489631404924	-0.0037655430412700964	4.64034557342529	95.14879970276712
0.019991591168279678	0.03073845603110173	-8.072052139882448	0.030433907678765467	-0.0043162417189442455	4.64034557342529	95.14879970276712
0.015879885322029146	0.03131221004506262	-9.324623049031121	0.03089845599704016	-0.005073451971300552	4.64034557342529	95.14879970276712
0.012613841275471424	0.03190038654387808	-10.531563798223091	0.03136300431531486	-0.005830662223656865	4.64034557342529	95.14879970276712
0.010019530273437504	0.032502202546967875	-11.694309038278679	0.03182755263358955	-0.006587872476013171	4.64034557342529	95.14879970276712
