Freq(Hz)	Zmod(Ohm)	Zphz(Deg)	Zreal(Ohm)	Zimag(Ohm)	Capacity(Ah)	SOH
10019.530273437504	0.04565820097923268	49.168128967285156	0.0298532304851666	0.0345464317442413	4.55724382400513	93.44482494799648
7958.795794866109	0.04090159786222634	46.01462006285814	0.028405128797896164	0.029429396284297242	4.55724382400513	93.44482494799648
6321.89621426703	0.03630113220681352	42.047087216020834	0.02695702711062573	0.024312360824353178	4.55724382400513	93.44482494799648
5021.660659988852	0.03192437614268807	36.96125871202282	0.025508925423355297	0.019195325364409137	4.55724382400513	93.44482494799648
3988.8468474333145	0.029176718828235856	32.20094787759446	0.024688882866368732	0.01554798972191123	4.55724382400513	93.44482494799648
3168.4536749072195	0.027339454251470323	27.680369293187667	0.0242105313067661	0.01270023356526711	4.55724382400513	93.44482494799648
2516.7922143947135	0.02569606325177268	22.545911032148737	0.02373217974716347	0.009852477408622991	4.55724382400513	93.44482494799648
1999.1591168279679	0.024544103705530184	17.58888455930458	0.023396649920095318	0.007416859121240222	4.55724382400513	93.44482494799648
1587.9885322029147	0.024142489721951783	14.271710036847322	0.02339739381773646	0.005951619318496032	4.55724382400513	93.44482494799648
1261.3841275471439	0.023824366722058607	10.854206012984601	0.023398137715377604	0.004486379515751833	4.55724382400513	93.44482494799648
1001.9530273437505	0.023593112255604995	7.357025850658837	0.023398881613018747	0.0030211397130076355	4.55724382400513	93.44482494799648
795.8795794866109	0.023671547693729016	5.613792427691209	0.023558016126294212	0.0023156092955741413	4.55724382400513	93.44482494799648
632.189621426703	0.023772882447669372	3.893487003410883	0.023718014727880855	0.0016142234166103687	4.55724382400513	93.44482494799648
502.1660659988852	0.023895455487024393	2.1893061497457427	0.023878013329467495	0.000912837537646599	4.55724382400513	93.44482494799648
398.88468474333143	0.02406270249672787	1.0856700990558423	0.024058382813496367	0.00045592526284056267	4.55724382400513	93.44482494799648
316.8453674907219	0.02424992248976268	0.3046815579180691	0.024249579622195355	0.00012895311669588674	4.55724382400513	93.44482494799648
251.67922143947135	0.024441578592246944	-0.46419991774348357	0.024440776430894342	-0.00019801902944878918	4.55724382400513	93.44482494799648
199.91591168279678	0.024641205125689295	-1.0840538812804992	0.02463679475122208	-0.000466191411817631	4.55724382400513	93.44482494799648
158.79885322029148	0.024850653391693553	-1.4003517056640546	0.024843231490266668	-0.0006073080891217802	4.55724382400513	93.44482494799648
126.13841275471438	0.025060846315110064	-1.711353104370414	0.02504966822931126	-0.0007484247664259301	4.55724382400513	93.44482494799648
100.19530273437505	0.025271765315322207	-2.017172132557813	0.025256104968355852	-0.00088954144373008	4.55724382400513	93.44482494799648
79.58795794866109	0.0254769585327688	-2.153964383189547	0.02545895746752793	-0.0009575493444333347	4.55724382400513	93.44482494799648
63.2189621426703	0.025682161744015487	-2.2852435898452437	0.02566173666520924	-0.0010240620934437424	4.55724382400513	93.44482494799648
50.21660659988852	0.02588749764478426	-2.414440890333395	0.02586451586289055	-0.0010905748424541496	4.55724382400513	93.44482494799648
39.888468474333145	0.02609226881331116	-2.429916666789377	0.02606880739578098	-0.00110624264416312	4.55724382400513	93.44482494799648
31.684536749072194	0.02629664896556402	-2.3757566733143127	0.02627404592633584	-0.0010900722356313392	4.55724382400513	93.44482494799648
25.167922143947134	0.026501052252376346	-2.3224321076035523	0.026479284456890705	-0.0010739018270995585	4.55724382400513	93.44482494799648
19.99159116827968	0.02669383328004768	-2.2501293721102447	0.026673250935584116	-0.001048055203861955	4.55724382400513	93.44482494799648
15.879885322029146	0.02686152944540514	-2.1362730080522274	0.02684286054794648	-0.001001300029893997	4.55724382400513	93.44482494799648
12.613841275471438	0.027029330366169835	-2.023829869080002	0.027012470160308846	-0.0009545448559260389	4.55724382400513	93.44482494799648
10.019530273437505	0.027197234103388725	-1.9127746555466272	0.02718207977267121	-0.0009077896819580808	4.55724382400513	93.44482494799648
7.958795794866109	0.027296046903280306	-1.792945112311159	0.027282683316309096	-0.0008540302149618653	4.55724382400513	93.44482494799648
6.32189621426703	0.027393563406473496	-1.6737672776873178	0.02738187561296314	-0.0008001275027758751	4.55724382400513	93.44482494799648
5.021660659988852	0.02749119758924813	-1.5554354472904415	0.027481067909617185	-0.000746224790589885	4.55724382400513	93.44482494799648
3.9888468474333143	0.02754515993388262	-1.455714449435538	0.027536269989142773	-0.0006997648663712126	4.55724382400513	93.44482494799648
3.1684536749072194	0.027577272094200703	-1.365208181581228	0.02756944405015089	-0.0006570319042333805	4.55724382400513	93.44482494799648
2.5167922143947137	0.02760945290621933	-1.274912672042854	0.027602618111159005	-0.0006142989420955485	4.55724382400513	93.44482494799648
1.9991591168279679	0.027660921573325645	-1.274740047427479	0.027654075891183242	-0.0006153607806399886	4.55724382400513	93.44482494799648
1.5879885322029146	0.027747268888695754	-1.4363163326184705	0.0277385507768461	-0.0006955081465475347	4.55724382400513	93.44482494799648
1.2613841275471438	0.027833835497297777	-1.5968888444391136	0.027823025662508955	-0.0007756555124550811	4.55724382400513	93.44482494799648
1.0019530273437505	0.02792061935940576	-1.7564644087226782	0.027907500548171812	-0.0008558028783626274	4.55724382400513	93.44482494799648
0.7958795794866117	0.028032220612744848	-1.8893777721741982	0.028016980769833225	-0.0009242191430566671	4.55724382400513	93.44482494799648
0.632189621426703	0.028144426865857098	-2.020760851827386	0.0281269242899662	-0.0009924180540921816	4.55724382400513	93.44482494799648
0.5021660659988852	0.02825677993104897	-2.151099815839232	0.028236867810099178	-0.0010606169651276953	4.55724382400513	93.44482494799648
0.39888468474333105	0.02838993056705291	-2.375014671986977	0.028365543505350626	-0.0011764774745595709	4.55724382400513	93.44482494799648
0.31684536749072195	0.02853397216389647	-2.643856535134882	0.02850359930442124	-0.0013162044457513688	4.55724382400513	93.44482494799648
0.25167922143947163	0.028678635660683426	-2.9099919732898436	0.028641655103491852	-0.0014559314169431668	4.55724382400513	93.44482494799648
0.1999159116827968	0.028850760081662215	-3.241713372676161	0.02880459481294089	-0.0016314640516826087	4.55724382400513	93.44482494799648
0.15879885322029147	0.029076372203452064	-3.700057561824048	0.02901576405942718	-0.0018763945644063515	4.55724382400513	93.44482494799648
0.12613841275471424	0.029303816313770045	-4.151315301323445	0.029226933305913475	-0.0021213250771300964	4.55724382400513	93.44482494799648
0.10019530273437505	0.02953305008633751	-4.59559497417073	0.029438102552399766	-0.0023662555898538397	4.55724382400513	93.44482494799648
0.07958795794866116	0.02988088251052876	-5.189549131028548	0.029758398191996008	-0.002702753531980335	4.55724382400513	93.44482494799648
0.0632189621426703	0.030232030938820133	-5.77000450565785	0.03007885967378102	-0.003039390631486448	4.55724382400513	93.44482494799648
0.05021660659988852	0.030586210781325545	-6.337073942587968	0.03039932115556603	-0.003376027730992558	4.55724382400513	93.44482494799648
0.039888468474333104	0.031041563449146867	-7.092215282247623	0.030804055827875577	-0.0038325978031272085	4.55724382400513	93.44482494799648
0.03168453674907219	0.03155374845059589	-7.926056481315373	0.03125231091528255	-0.004351103737903043	4.55724382400513	93.44482494799648
0.025167922143947162	0.03207240220587043	-8.7330953967977	0.03170056600268952	-0.0048696096726788774	4.55724382400513	93.44482494799648
0.019991591168279678	0.03266802550369303	-9.673124998727255	0.032203564316996114	-0.005489110637528871	4.55724382400513	93.44482494799648
0.015879885322029146	0.03342226998617906	-10.895594792037963	0.03281977502955837	-0.0063174756064604196	4.55724382400513	93.44482494799648
0.012613841275471424	0.03419105409425414	-12.063602373923624	0.03343598574212063	-0.007145840575391975	4.55724382400513	93.44482494799648
0.010019530273437504	0.03497341901289375	-13.179799511432698	0.03405219645468289	-0.007974205544323524	4.55724382400513	93.44482494799648
