Freq(Hz)	Zmod(Ohm)	Zphz(Deg)	Zreal(Ohm)	Zimag(Ohm)	Capacity(Ah)	SOH
10019.530273437504	0.04644240066409107	51.48788070678707	0.0289187615327747	0.0363400854546942	4.83460330963135	99.1319923638559
7958.795794866109	0.04137445021780417	48.40064311447767	0.027469234749970702	0.03094004319771641	4.83460330963135	99.1319923638559
6321.89621426703	0.03645979773325091	44.46694045456064	0.026019707967166704	0.02554000094073862	4.83460330963135	99.1319923638559
5021.660659988852	0.031769666967344894	39.341168007334275	0.02457018118436271	0.020139958683760853	4.83460330963135	99.1319923638559
3988.8468474333145	0.028801466721780026	34.47183952504422	0.02374405801672152	0.01630166231475689	4.83460330963135	99.1319923638559
3168.4536749072195	0.026797927963421217	29.78805095545281	0.023257093047356098	0.013313022426156031	4.83460330963135	99.1319923638559
2516.7922143947135	0.025001432108378782	24.390387941788195	0.022770128077990677	0.01032438253755517	4.83460330963135	99.1319923638559
1999.1591168279679	0.023737386611386097	19.09495139584081	0.02243130198243279	0.007765321275473341	4.83460330963135	99.1319923638559
1587.9885322029147	0.023286699503481282	15.486220215156283	0.02244126881905328	0.0062177027555538784	4.83460330963135	99.1319923638559
1261.3841275471439	0.022931804753104763	11.750539389532571	0.02245123565567377	0.004670084235634409	4.83460330963135	99.1319923638559
1001.9530273437505	0.02267720021399602	7.914305652575366	0.02246120249229426	0.0031224657157149396	4.83460330963135	99.1319923638559
795.8795794866109	0.02276964044490484	5.993036406852747	0.02264519507360592	0.0023773232991287584	4.83460330963135	99.1319923638559
632.189621426703	0.022888719530056084	4.100185165471955	0.022830137039521137	0.0016365587316854264	4.83460330963135	99.1319923638559
502.1660659988852	0.0230325054827122	2.228944357123719	0.023015079005436357	0.0008957941642420979	4.83460330963135	99.1319923638559
398.88468474333143	0.023222992887523334	1.057303224981442	0.023219038950768458	0.0004285193772241971	4.83460330963135	99.1319923638559
316.8453674907219	0.0234333496386013	0.26066090403945175	0.02343310713948668	0.00010660710236167316	4.83460330963135	99.1319923638559
251.67922143947135	0.023648155473951202	-0.5216579423836596	0.023647175328204904	-0.0002153051725008509	4.83460330963135	99.1319923638559
199.91591168279678	0.02386594127973167	-1.1423008764837042	0.02386119831449012	-0.0004757816349691644	4.83460330963135	99.1319923638559
158.79885322029148	0.02408268667658675	-1.4359688481774557	0.02407512362645443	-0.0006035063658195246	4.83460330963135	99.1319923638559
126.13841275471438	0.0243000534412918	-1.724390497063019	0.02428904893841874	-0.0007312310966698853	4.83460330963135	99.1319923638559
100.19530273437505	0.02451802504747407	-2.0076909323507226	0.024502974250383048	-0.0008589558275202459	4.83460330963135	99.1319923638559
79.58795794866109	0.024714105331539307	-1.9929192420947865	0.02469915656886956	-0.0008594574596146717	4.83460330963135	99.1319923638559
63.2189621426703	0.024909734898248215	-1.972427882551155	0.02489497602440079	-0.000857357244977171	4.83460330963135	99.1319923638559
50.21660659988852	0.025105367601445758	-1.9522558768727871	0.025090795479932017	-0.0008552570303396703	4.83460330963135	99.1319923638559
39.888468474333145	0.02525695638260498	-1.8587941840075548	0.025243666220675864	-0.0008192444396629848	4.83460330963135	99.1319923638559
31.684536749072194	0.02538108422534854	-1.7204050567427696	0.025369643232867615	-0.0007619965165608797	4.83460330963135	99.1319923638559
25.167922143947134	0.02550535869695353	-1.5833637342972557	0.025495620245059362	-0.0007047485934587746	4.83460330963135	99.1319923638559
19.99159116827968	0.02561478784524551	-1.4422242754313348	0.025606673412329937	-0.0006446961386670303	4.83460330963135	99.1319923638559
15.879885322029146	0.02569199452481794	-1.290409777288161	0.025685478848632058	-0.0005785835978922395	4.83460330963135	99.1319923638559
12.613841275471438	0.025769380498942725	-1.1395060290394021	0.025764284284934182	-0.0005124710571174487	4.83460330963135	99.1319923638559
10.019530273437505	0.025846944157191604	-0.9895069344995563	0.025843089721236306	-0.0004463585163426578	4.83460330963135	99.1319923638559
7.958795794866109	0.02590044949790477	-0.9511487770827216	0.02589688072449171	-0.0004299452697323096	4.83460330963135	99.1319923638559
6.32189621426703	0.025953471107516276	-0.9152103472466968	0.025950160156173165	-0.0004145484261758509	4.83460330963135	99.1319923638559
5.021660659988852	0.026006502886491915	-0.8794184727848429	0.02600343958785462	-0.0003991515826193922	4.83460330963135	99.1319923638559
3.9888468474333143	0.026054448612896252	-0.8914257562717178	0.026051295291613565	-0.0004053469516405491	4.83460330963135	99.1319923638559
3.1684536749072194	0.0260998526232125	-0.927215626401441	0.026096435073812905	-0.00042235458051266333	4.83460330963135	99.1319923638559
2.5167922143947137	0.026145266782030115	-0.9628811768626605	0.026141574856012248	-0.0004393622093847776	4.83460330963135	99.1319923638559
1.9991591168279679	0.026196246002036704	-1.0419653695916034	0.026191914301741594	-0.00047637150360625203	4.83460330963135	99.1319923638559
1.5879885322029146	0.026257393851673416	-1.199141900854823	0.02625164340391359	-0.0005495002053293302	4.83460330963135	99.1319923638559
1.2613841275471438	0.02631873837990518	-1.355586901041571	0.026311372506085593	-0.0006226289070524087	4.83460330963135	99.1319923638559
1.0019530273437505	0.026380278214666635	-1.5113031488065896	0.02637110160825759	-0.0006957576087754872	4.83460330963135	99.1319923638559
0.7958795794866117	0.026459203442857224	-1.7350806859908463	0.026447072133811183	-0.0008011381775295741	4.83460330963135	99.1319923638559
0.632189621426703	0.02653885104276969	-1.958790966504959	0.026523343580201395	-0.0009071163083680645	4.83460330963135	99.1319923638559
0.5021660659988852	0.02661890080197958	-2.1811591134279804	0.026599615026591607	-0.001013094439206554	4.83460330963135	99.1319923638559
0.39888468474333105	0.026744009702839945	-2.4701861990122467	0.02671915873128625	-0.0011526541883526407	4.83460330963135	99.1319923638559
0.31684536749072195	0.026892249560560928	-2.7900803603555158	0.02686037094339224	-0.0013090298739368918	4.83460330963135	99.1319923638559
0.25167922143947163	0.027041318502564943	-3.106457373629709	0.027001583155498228	-0.0014654055595211429	4.83460330963135	99.1319923638559
0.1999159116827968	0.027217769686449286	-3.464222635319751	0.027168035323717397	-0.0016446407978162006	4.83460330963135	99.1319923638559
0.15879885322029147	0.02744705975059886	-3.902850311709011	0.027383407110262888	-0.0018681820003811087	4.83460330963135	99.1319923638559
0.12613841275471424	0.02767793168848891	-4.334185404341012	0.027598778896808382	-0.0020917232029460187	4.83460330963135	99.1319923638559
0.10019530273437505	0.027910346244784216	-4.758360592798788	0.027814150683353873	-0.002315264405510927	4.83460330963135	99.1319923638559
0.07958795794866116	0.028274185244194172	-5.369806729880848	0.028150101686698868	-0.00264600193717255	4.83460330963135	99.1319923638559
0.0632189621426703	0.02864136144891797	-5.965936492242423	0.028486235937383617	-0.0029769023778549787	4.83460330963135	99.1319923638559
0.05021660659988852	0.029011559467639378	-6.5469141569168805	0.028822370188068363	-0.0033078028185374044	4.83460330963135	99.1319923638559
0.039888468474333104	0.02946675919593128	-7.338731406220825	0.02922537697788698	-0.0037639391614895006	4.83460330963135	99.1319923638559
0.03168453674907219	0.029970782332302492	-8.219410150291905	0.029662918127252334	-0.004284749909408969	4.83460330963135	99.1319923638559
0.025167922143947162	0.03048165123307106	-9.070764342473755	0.030100459276617683	-0.004805560657328437	4.83460330963135	99.1319923638559
0.019991591168279678	0.031074443892171205	-10.061417660620604	0.03059655147233723	-0.005428821346140865	4.83460330963135	99.1319923638559
0.015879885322029146	0.03183605072655924	-11.347360857154031	0.031213730873790795	-0.006263954885103542	4.83460330963135	99.1319923638559
0.012613841275471424	0.032612940765950074	-12.57263093876024	0.03183091027524436	-0.0070990884240662265	4.83460330963135	99.1319923638559
0.010019530273437504	0.03340404768625563	-13.74037827951089	0.03244808967669792	-0.007934221963028903	4.83460330963135	99.1319923638559
