Freq(Hz)	Zmod(Ohm)	Zphz(Deg)	Zreal(Ohm)	Zimag(Ohm)	Capacity(Ah)	SOH
10019.530273437504	0.046887200325727345	49.76876068115237	0.0302832252870266	0.0357957514322591	4.51584815979004	92.64643014015692
7958.795794866109	0.041993333203814064	46.51793739926108	0.028896765354211294	0.03046993576675551	4.51584815979004	92.64643014015692
6321.89621426703	0.03726987630841657	42.426972528849774	0.027510305421395986	0.025144120101251926	4.51584815979004	92.64643014015692
5021.660659988852	0.032790554948326826	37.185005408848454	0.026123845488580683	0.019818304435748366	4.51584815979004	92.64643014015692
3988.8468474333145	0.029982359154386493	32.33306885059988	0.02533369287394678	0.01603576832681121	4.51584815979004	92.64643014015692
3168.4536749072195	0.028104053064147465	27.76655767918196	0.024867956914484575	0.01309284222511504	4.51584815979004	92.64643014015692
2516.7922143947135	0.026428945965553965	22.58449265141597	0.02440222095502237	0.010149916123418872	4.51584815979004	92.64643014015692
1999.1591168279679	0.025259207065253978	17.58810999935558	0.024078424889075103	0.007632627098617164	4.51584815979004	92.64643014015692
1587.9885322029147	0.024853477867520953	14.249369734583398	0.024088826258140645	0.00611750043861606	4.51584815979004	92.64643014015692
1261.3841275471439	0.02453476343122102	10.811928969210667	0.024099227627206184	0.0046023737786149484	4.51584815979004	92.64643014015692
1001.9530273437505	0.024306486893610434	7.297036236620455	0.024109628996271726	0.0030872471186138366	4.51584815979004	92.64643014015692
795.8795794866109	0.024385918404967927	5.523098717367895	0.024272706227411428	0.0023470724001478944	4.51584815979004	92.64643014015692
632.189621426703	0.024489670161307892	3.772096613841803	0.024436616370446126	0.001611125374791949	4.51584815979004	92.64643014015692
502.1660659988852	0.02461608908587622	2.037472136632127	0.02460052651348082	0.0008751783494360067	4.51584815979004	92.64643014015692
398.88468474333143	0.024796107883398765	0.899237329811939	0.024793054031322207	0.0003891503116896588	4.51584815979004	92.64643014015692
316.8453674907219	0.025000817822573636	0.08240396748449351	0.025000791965752913	3.59566775460623e-05	4.51584815979004	92.64643014015692
251.67922143947135	0.025210525956732493	-0.7210011592791414	0.025208529900183616	-0.0003172369565975342	4.51584815979004	92.64643014015692
199.91591168279678	0.02542889780031771	-1.3833018562047694	0.025421487000202525	-0.000613874610598085	4.51584815979004	92.64643014015692
158.79885322029148	0.025657834480352793	-1.760618447468784	0.02564572177756359	-0.000788304972064364	4.51584815979004	92.64643014015692
126.13841275471438	0.025887864173703427	-2.131245492479828	0.025869956554924654	-0.0009627353335306438	4.51584815979004	92.64643014015692
100.19530273437505	0.026118958001876965	-2.4953291229643546	0.026094191332285716	-0.0011371656949969236	4.51584815979004	92.64643014015692
79.58795794866109	0.026364347293214616	-2.6789866381401084	0.02633553328108362	-0.001232272290595671	4.51584815979004	92.64643014015692
63.2189621426703	0.02661027102660225	-2.8557288618208267	0.02657722508960457	-0.001325756631407318	4.51584815979004	92.64643014015692
50.21660659988852	0.02685644333350541	-3.029232592016747	0.026818916898125513	-0.0014192409722189646	4.51584815979004	92.64643014015692
39.888468474333145	0.027118189398786432	-3.140701457436763	0.027077457937321837	-0.0014857550003346534	4.51584815979004	92.64643014015692
31.684536749072194	0.02738961797132659	-3.213515872653264	0.027346549667926243	-0.001535380693788848	4.51584815979004	92.64643014015692
25.167922143947134	0.027661089911640162	-3.284901168332187	0.02761564139853065	-0.0015850063872430427	4.51584815979004	92.64643014015692
19.99159116827968	0.02793721215907243	-3.312480636885625	0.027890536169699706	-0.001614253817618799	4.51584815979004	92.64643014015692
15.879885322029146	0.028223329080980443	-3.2487968751124505	0.028177970262465594	-0.0015994675054282986	4.51584815979004	92.64643014015692
12.613841275471438	0.028509480170480717	-3.1863914317810718	0.028465404355231486	-0.0015846811932377983	4.51584815979004	92.64643014015692
10.019530273437505	0.02879566440897266	-3.1252263437016428	0.028752838447997378	-0.0015698948810472977	4.51584815979004	92.64643014015692
7.958795794866109	0.029060167938463513	-2.971555170505904	0.02902109346763873	-0.001506484169939841	4.51584815979004	92.64643014015692
6.32189621426703	0.029324436063792217	-2.818754346371009	0.02928895625497936	-0.0014420790385215204	4.51584815979004	92.64643014015692
5.021660659988852	0.029588909025085097	-2.668684013588659	0.029556819042319986	-0.0013776739071032	4.51584815979004	92.64643014015692
3.9888468474333143	0.029744294464958923	-2.4972710833826945	0.029716046248367815	-0.0012960125705606287	4.51584815979004	92.64643014015692
3.1684536749072194	0.029845238926883767	-2.3153077116842593	0.02982087439133791	-0.001205710221746891	4.51584815979004	92.64643014015692
2.5167922143947137	0.029946482379319444	-2.1345728955333514	0.029925702534308006	-0.0011154078729331532	4.51584815979004	92.64643014015692
1.9991591168279679	0.030048230607314385	-1.9765754593633895	0.030030352260006506	-0.0010363907420790192	4.51584815979004	92.64643014015692
1.5879885322029146	0.030150537751944036	-1.8583723551953188	0.030134679796226003	-0.000977752683622494	4.51584815979004	92.64643014015692
1.2613841275471438	0.03025297235224808	-1.7409692102348457	0.030239007332445503	-0.0009191146251659684	4.51584815979004	92.64643014015692
1.0019530273437505	0.03035553311793086	-1.6243589070247968	0.030343334868665	-0.0008604765667094429	4.51584815979004	92.64643014015692
0.7958795794866117	0.030443765092412662	-1.705243653322106	0.030430282794244326	-0.0009059371194080913	4.51584815979004	92.64643014015692
0.632189621426703	0.03053179569724929	-1.7892972845954196	0.03051690871067143	-0.000953326409534731	4.51584815979004	92.64643014015692
0.5021660659988852	0.030619891632459574	-1.8728674365030675	0.030603534627098535	-0.0010007156996613702	4.51584815979004	92.64643014015692
0.39888468474333105	0.03072727836447716	-2.0395188300918368	0.030707813184898458	-0.0010935470220537612	4.51584815979004	92.64643014015692
0.31684536749072195	0.030844639857752702	-2.2466138181599042	0.030820931271888785	-0.0012091333623610889	4.51584815979004	92.64643014015692
0.25167922143947163	0.030962401263923432	-2.452136157411701	0.030934049358879116	-0.0013247197026684163	4.51584815979004	92.64643014015692
0.1999159116827968	0.031094698098093676	-2.733447384727939	0.03105931872378949	-0.00148289251992521	4.51584815979004	92.64643014015692
0.15879885322029147	0.03125570005259544	-3.161197832152773	0.031208139471886116	-0.0017236056628818141	4.51584815979004	92.64643014015692
0.12613841275471424	0.031418426163774514	-3.5845407590569005	0.031356960219982744	-0.00196431880583842	4.51584815979004	92.64643014015692
0.10019530273437505	0.03158284978123094	-4.003498426050305	0.03150578096807937	-0.002205031948795024	4.51584815979004	92.64643014015692
0.07958795794866116	0.031896951252877365	-4.698152946335535	0.03178977838230654	-0.002612563804440195	4.51584815979004	92.64643014015692
0.0632189621426703	0.03221587777750882	-5.3795766291872695	0.03207398122799297	-0.0030203491787773305	4.51584815979004	92.64643014015692
0.05021660659988852	0.032539271397195986	-6.0475484991953525	0.03235818407367941	-0.003428134553114462	4.51584815979004	92.64643014015692
0.039888468474333104	0.03294897183249871	-6.951140558975743	0.0327067875258439	-0.003987580037829355	4.51584815979004	92.64643014015692
0.03168453674907219	0.03341036520496371	-7.957611748690236	0.033088648780507685	-0.0046253459340093814	4.51584815979004	92.64643014015692
0.025167922143947162	0.033881785492379156	-8.936370623732575	0.03347051003517148	-0.005263111830189408	4.51584815979004	92.64643014015692
0.019991591168279678	0.03446482673887278	-10.165585370777103	0.033923790862180274	-0.006082819714538178	4.51584815979004	92.64643014015692
0.015879885322029146	0.035283717550952595	-11.90521877415815	0.03452477180709407	-0.007278794947206763	4.51584815979004	92.64643014015692
0.012613841275471424	0.03613364410071163	-13.564484917943473	0.03512575275200786	-0.008474770179875359	4.51584815979004	92.64643014015692
0.010019530273437504	0.03701246840572778	-15.14623111520702	0.035726733696921656	-0.009670745412543943	4.51584815979004	92.64643014015692
