Freq(Hz)	Zmod(Ohm)	Zphz(Deg)	Zreal(Ohm)	Zimag(Ohm)	Capacity(Ah)	SOH
10019.530273437504	0.04760359972715374	52.18793869018552	0.0291844995593511	0.0376080801484642	4.83468055725098	99.18754542848785
7958.795794866109	0.04234251248308768	49.06567187315744	0.027742541380730713	0.031988119061909216	4.83468055725098	99.18754542848785
6321.89621426703	0.037242454696010105	45.07351129146834	0.02630058320211033	0.026368157975354228	4.83468055725098	99.18754542848785
5021.660659988852	0.03237960642433537	39.84998989083055	0.024858625023489952	0.020748196888799263	4.83468055725098	99.18754542848785
3988.8468474333145	0.029314467790710386	34.90456939441417	0.024040978076840018	0.01677406912354585	4.83468055725098	99.18754542848785
3168.4536749072195	0.0272539290305197	30.166134299165886	0.023562983110782348	0.013695344994617342	4.83468055725098	99.18754542848785
2516.7922143947135	0.02540923682930793	24.697362712658563	0.023084988144724677	0.010616620865688837	4.83468055725098	99.18754542848785
1999.1591168279679	0.02411368485716249	19.337965139715926	0.022753232716626794	0.007984998330217211	4.83468055725098	99.18754542848785
1587.9885322029147	0.023649934113476948	15.716090542490102	0.022765798235046136	0.0064060763570980735	4.83468055725098	99.18754542848785
1261.3841275471439	0.023284228025252568	11.965012012287788	0.02277836375346548	0.0048271543839789295	4.83468055725098	99.18754542848785
1001.9530273437505	0.023021239559828578	8.111341367946094	0.02279092927188482	0.0032482324108597848	4.83468055725098	99.18754542848785
795.8795794866109	0.023106253841470564	6.159057510958899	0.02297288187458245	0.002479045171624431	4.83468055725098	99.18754542848785
632.189621426703	0.023219127769674254	4.234017614142424	0.023155758556014178	0.0017142753804550615	4.83468055725098	99.18754542848785
502.1660659988852	0.023357942024301637	2.3297282289967405	0.023338635237445903	0.0009495055892856951	4.83468055725098	99.18754542848785
398.88468474333143	0.023550831239647952	1.148952092971708	0.023546096236546916	0.00047223309673196734	4.83468055725098	99.18754542848785
316.8453674907219	0.02376708341046765	0.3562301475811704	0.02376662404264333	0.0001477682502249953	4.83468055725098	99.18754542848785
251.67922143947135	0.023987802640126	-0.4220503615489406	0.02398715184873974	-0.00017669659628197673	4.83468055725098	99.18754542848785
199.91591168279678	0.024210716842275392	-1.027273573518365	0.024206825557758237	-0.00043405809876098243	4.83468055725098	99.18754542848785
158.79885322029148	0.024430765143125126	-1.2815909801072036	0.02442465371673606	-0.0005464213539651261	4.83468055725098	99.18754542848785
126.13841275471438	0.024651286176509447	-1.5313631809843822	0.024642481875713888	-0.0006587846091692703	4.83468055725098	99.18754542848785
100.19530273437505	0.02487226736849138	-1.7767017023358753	0.02486031003469171	-0.0007711478643734144	4.83468055725098	99.18754542848785
79.58795794866109	0.025037882181255626	-1.7513086787654404	0.025026186812559057	-0.000765191312897031	4.83468055725098	99.18754542848785
63.2189621426703	0.02520236708845399	-1.7208234771523587	0.025191001129816	-0.0007568149964145734	4.83468055725098	99.18754542848785
50.21660659988852	0.02536685903780051	-1.6907336310190757	0.02535581544707294	-0.0007484386799321159	4.83468055725098	99.18754542848785
39.888468474333145	0.025501340757234904	-1.5848179285912114	0.025491585947220705	-0.000705284561060211	4.83468055725098	99.18754542848785
31.684536749072194	0.025617174434385947	-1.4323733306048407	0.02560916972077332	-0.000640353195028976	4.83468055725098	99.18754542848785
25.167922143947134	0.02573318782504606	-1.281302208596828	0.025726753494325932	-0.000575421828997741	4.83468055725098	99.18754542848785
19.99159116827968	0.025829926503369842	-1.1478890638466002	0.02582474288261463	-0.0005174535885785655	4.83468055725098	99.18754542848785
15.879885322029146	0.02588474237975828	-1.0504323142277416	0.025880392346586203	-0.00047453140382555523	4.83468055725098	99.18754542848785
12.613841275471438	0.025939632829263207	-0.953387738221758	0.025936041810557777	-0.00043160921907254483	4.83468055725098	99.18754542848785
10.019530273437505	0.025994597379476632	-0.8567532798199896	0.02599169127452935	-0.0003886870343195344	4.83468055725098	99.18754542848785
7.958795794866109	0.026012407736685454	-0.844853429036629	0.026009579861965466	-0.0003835513832770753	4.83468055725098	99.18754542848785
6.32189621426703	0.02602945829228395	-0.834695418571168	0.026026696199596557	-0.0003791885067559651	4.83468055725098	99.18754542848785
5.021660659988852	0.026046509664969263	-0.8245507076898922	0.02604381253722765	-0.0003748256302348548	4.83468055725098	99.18754542848785
3.9888468474333143	0.02609312618055522	-0.8249965072702595	0.02609042130324849	-0.00037569947214967765	4.83468055725098	99.18754542848785
3.1684536749072194	0.026154547331121138	-0.8307185711818191	0.02615179834733437	-0.0003791955909753117	4.83468055725098	99.18754542848785
2.5167922143947137	0.026215968741324643	-0.8364138226954452	0.026213175391420252	-0.0003826917098009457	4.83468055725098	99.18754542848785
1.9991591168279679	0.026273115597698193	-0.8653403680892741	0.026270119182515938	-0.00039678879321403853	4.83468055725098	99.18754542848785
1.5879885322029146	0.026322570224912308	-0.9360773086017132	0.026319057316656878	-0.0004300293105940808	4.83468055725098	99.18754542848785
1.2613841275471438	0.02637206482296761	-1.0065488406584693	0.02636799545079782	-0.0004632698279741231	4.83468055725098	99.18754542848785
1.0019530273437505	0.026421599167236437	-1.0767562431771627	0.02641693358493876	-0.0004965103453541654	4.83468055725098	99.18754542848785
0.7958795794866117	0.026466226290673755	-1.2397970746674136	0.026460030438751156	-0.0005726458325290381	4.83468055725098	99.18754542848785
0.632189621426703	0.026510978266777067	-1.4040105318102778	0.02650301906541362	-0.0006495760770286994	4.83468055725098	99.18754542848785
0.5021660659988852	0.02655594727783182	-1.5676691816452735	0.026546007692076084	-0.00072650632152836	4.83468055725098	99.18754542848785
0.39888468474333105	0.02665314881673259	-1.7789022479497307	0.026640303567227543	-0.0008273860603474583	4.83468055725098	99.18754542848785
0.31684536749072195	0.026776804978350586	-2.0123356461773	0.026760291457025385	-0.0009402584664201991	4.83468055725098	99.18754542848785
0.25167922143947163	0.02690090151645199	-2.243619151020498	0.026880279346823226	-0.0010531308724929399	4.83468055725098	99.18754542848785
0.1999159116827968	0.027038172047848988	-2.510583365982516	0.027012219388149714	-0.0011843780712048487	4.83468055725098	99.18754542848785
0.15879885322029147	0.02720090783927794	-2.8474110917235507	0.02716732486955613	-0.0013512389547703564	4.83468055725098	99.18754542848785
0.12613841275471424	0.027364572487111043	-3.180221142361372	0.027322430350962545	-0.0015180998383358653	4.83468055725098	99.18754542848785
0.10019530273437505	0.02752914942480916	-3.5090629154559165	0.02747753583236896	-0.001684960721901373	4.83468055725098	99.18754542848785
0.07958795794866116	0.027771932593703242	-4.021630808535375	0.02770354821135466	-0.0019477311134610906	4.83468055725098	99.18754542848785
0.0632189621426703	0.028017018674719067	-4.5255548601041715	0.02792966834937792	-0.0022106472611690352	4.83468055725098	99.18754542848785
0.05021660659988852	0.028264234312731836	-5.020701426145077	0.028155788487401176	-0.0024735634088769777	4.83468055725098	99.18754542848785
0.039888468474333104	0.028566669296597277	-5.717037340586898	0.02842457846864332	-0.002845686838197808	4.83468055725098	99.18754542848785
0.03168453674907219	0.0289014681562505	-6.50492453825064	0.02871540403768592	-0.0032742071619268343	4.83468055725098	99.18754542848785
0.025167922143947162	0.029241606433834746	-7.274625091468016	0.029006229606728523	-0.0037027274856558613	4.83468055725098	99.18754542848785
0.019991591168279678	0.029656216592017955	-8.205227318055684	0.029352632254921907	-0.004232512523312738	4.83468055725098	99.18754542848785
0.015879885322029146	0.030225666324611083	-9.467415556661933	0.029813971759691964	-0.004971719288034932	4.83468055725098	99.18754542848785
0.012613841275471424	0.030809238038940878	-10.68235976683691	0.030275311264462028	-0.005710926052757133	4.83468055725098	99.18754542848785
0.010019530273437504	0.03140614452416691	-11.851630806921865	0.030736650769232085	-0.006450132817479327	4.83468055725098	99.18754542848785
