Freq(Hz)	Zmod(Ohm)	Zphz(Deg)	Zreal(Ohm)	Zimag(Ohm)	Capacity(Ah)	SOH
10019.530273437504	0.0467779003083705	49.9854393005371	0.0300773603131236	0.0358263081248178	4.51584815979004	92.64643014015692
7958.795794866109	0.04185855312975083	46.77390989083629	0.028668043040616223	0.030500520951904225	4.51584815979004	92.64643014015692
6321.89621426703	0.03710532780267564	42.72395085369909	0.027258725768108845	0.025174733778990648	4.51584815979004	92.64643014015692
5021.660659988852	0.032590989566801634	37.51952328529768	0.025849408495601474	0.019848946606077094	4.51584815979004	92.64643014015692
3988.8468474333145	0.02975940137363701	32.68750842604958	0.02504636166775549	0.016071768332240756	4.51584815979004	92.64643014015692
3168.4536749072195	0.02786437105904431	28.12949033189703	0.02457315186150828	0.013137099455639298	4.51584815979004	92.64643014015692
2516.7922143947135	0.02617053298630022	22.94480561769771	0.024099942055261073	0.010202430579037842	4.51584815979004	92.64643014015692
1999.1591168279679	0.02498293376292579	17.939975397286293	0.02376825674960784	0.007695255063183984	4.51584815979004	92.64643014015692
1587.9885322029147	0.024563716755195013	14.606874996623667	0.023769790836464546	0.006194612531884005	4.51584815979004	92.64643014015692
1261.3841275471439	0.02423033724438224	11.17012573055823	0.023771324923321256	0.004693970000584019	4.51584815979004	92.64643014015692
1001.9530273437505	0.023986374587333614	7.650552348931775	0.023772859010177966	0.003193327469284035	4.51584815979004	92.64643014015692
795.8795794866109	0.024048963454599587	5.882136521841132	0.023922341262738095	0.0024645956564444465	4.51584815979004	92.64643014015692
632.189621426703	0.024135438809640294	4.134398559624893	0.02407263063559467	0.0017400749455468737	4.51584815979004	92.64643014015692
502.1660659988852	0.024244199391593477	2.40073925802721	0.02422292000845124	0.0010155542346493038	4.51584815979004	92.64643014015692
398.88468474333143	0.02440043705949965	1.2785541647787753	0.024394362111208046	0.0005444500728819167	4.51584815979004	92.64643014015692
316.8453674907219	0.02457792758598116	0.48498460014743644	0.024577047098260044	0.00020803930311626194	4.51584815979004	92.64643014015692
251.67922143947135	0.024760064866027314	-0.2970580343981404	0.024759732085312038	-0.00012837146664939286	4.51584815979004	92.64643014015692
199.91591168279678	0.024949656126903412	-0.9331185489718015	0.024946347457694123	-0.00040631191309993043	4.51584815979004	92.64643014015692
158.79885322029148	0.025147645136011015	-1.2712294105361013	0.025141455685271916	-0.0005579085160193149	4.51584815979004	92.64643014015692
126.13841275471438	0.02534649617646823	-1.6040465442709224	0.025336563912849712	-0.0007095051189387002	4.51584815979004	92.64643014015692
100.19530273437505	0.02554618911817708	-1.9316713684075202	0.025531672140427505	-0.0008611017218580854	4.51584815979004	92.64643014015692
79.58795794866109	0.025748405208963977	-2.105603542529409	0.02573102002055813	-0.000946033565281968	4.51584815979004	92.64643014015692
63.2189621426703	0.025950887392263394	-2.273808150135074	0.02593045460606102	-0.0010296020439684393	4.51584815979004	92.64643014015692
50.21660659988852	0.02615358976844128	-2.4394068400939983	0.026129889191563914	-0.0011131705226549102	4.51584815979004	92.64643014015692
39.888468474333145	0.02637025109716401	-2.509815015279088	0.02634495503121035	-0.0011547672193927697	4.51584815979004	92.64643014015692
31.684536749072194	0.02659556045649207	-2.5215637879435997	0.026569808886818303	-0.0011700819257110802	4.51584815979004	92.64643014015692
25.167922143947134	0.026820870915307587	-2.5331151684395072	0.026794662742426256	-0.0011853966320293904	4.51584815979004	92.64643014015692
19.99159116827968	0.027029260421065824	-2.498702957346761	0.02700356123722141	-0.001178388483238292	4.51584815979004	92.64643014015692
15.879885322029146	0.027201180458952433	-2.366432200500681	0.02717798308168193	-0.0011231446800419077	4.51584815979004	92.64643014015692
12.613841275471438	0.027373243642769655	-2.235823614239203	0.027352404926142455	-0.0010679008768455232	4.51584815979004	92.64643014015692
10.019530273437505	0.027545447290025917	-2.1068473950276823	0.027526826770602975	-0.0010126570736491386	4.51584815979004	92.64643014015692
7.958795794866109	0.027682348622562813	-1.9536225522604682	0.027666258219752174	-0.0009437061932087629	4.51584815979004	92.64643014015692
6.32189621426703	0.027818721933332565	-1.8013761216529065	0.027804974078363333	-0.0008744749885624821	4.51584815979004	92.64643014015692
5.021660659988852	0.02795528974711772	-1.6506161506288135	0.027943689936974492	-0.0008052437839162016	4.51584815979004	92.64643014015692
3.9888468474333143	0.02804637896740218	-1.5674765772970676	0.02803588410931815	-0.0007671866735166479	4.51584815979004	92.64643014015692
3.1684536749072194	0.02811464821960567	-1.5179079039631835	0.028104782634732574	-0.0007447399321981805	4.51584815979004	92.64643014015692
2.5167922143947137	0.028182938412578865	-1.4685794139666815	0.028173681160147002	-0.0007222931908797132	4.51584815979004	92.64643014015692
1.9991591168279679	0.02825020769303953	-1.4794502154943023	0.028240790467641	-0.0007293753921453599	4.51584815979004	92.64643014015692
1.5879885322029146	0.02831568521248135	-1.5983020893170563	0.028304668769613787	-0.0007897815487746135	4.51584815979004	92.64643014015692
1.2613841275471438	0.028381284010545453	-1.7166050560454795	0.028368547071586574	-0.0008501877054038671	4.51584815979004	92.64643014015692
1.0019530273437505	0.028447003248226244	-1.8343619077753335	0.028432425373559358	-0.0009105938620331209	4.51584815979004	92.64643014015692
0.7958795794866117	0.028553646644955438	-1.9807301732051632	0.02853658606845725	-0.0009869104733999468	4.51584815979004	92.64643014015692
0.632189621426703	0.028661231770911882	-2.1265417895805427	0.02864149311489683	-0.0010635218734215707	4.51584815979004	92.64643014015692
0.5021660659988852	0.028769001131719787	-2.2712619098453803	0.02874640016133641	-0.0011401332734431939	4.51584815979004	92.64643014015692
0.39888468474333105	0.028910866191997134	-2.5019823823786225	0.028883305804183457	-0.0012620736086239098	4.51584815979004	92.64643014015692
0.31684536749072195	0.029070290064490807	-2.7736278978532733	0.02903623468803008	-0.001406712328541866	4.51584815979004	92.64643014015692
0.25167922143947163	0.029230360245835686	-3.0423042481898905	0.029189163571876703	-0.0015513510484598224	4.51584815979004	92.64643014015692
0.1999159116827968	0.029412898572105918	-3.351777517114579	0.02936258454552911	-0.0017196602047047991	4.51584815979004	92.64643014015692
0.15879885322029147	0.029638879023306135	-3.7410334175131013	0.029575722910428648	-0.0019338469649179825	4.51584815979004	92.64643014015692
0.12613841275471424	0.029866206738805124	-4.124381117601816	0.029788861275328194	-0.0021480337251311675	4.51584815979004	92.64643014015692
0.10019530273437505	0.030094851188095375	-4.501920567338757	0.030001999640227733	-0.002362220485344351	4.51584815979004	92.64643014015692
0.07958795794866116	0.03045540386452052	-5.11556790761781	0.030334096185938957	-0.0027155539275173796	4.51584815979004	92.64643014015692
0.0632189621426703	0.030819568982150474	-5.7151464998807695	0.03066637351545981	-0.003069098834484934	4.51584815979004	92.64643014015692
0.05021660659988852	0.03118703006683907	-6.300658896623909	0.03099865084498066	-0.003422643741452485	4.51584815979004	92.64643014015692
0.039888468474333104	0.03165430463656814	-7.0592430741172585	0.03141435265602815	-0.0038901734186738593	4.51584815979004	92.64643014015692
0.03168453674907219	0.03217767707372138	-7.889072064232094	0.03187313659132806	-0.004416567184051318	4.51584815979004	92.64643014015692
0.025167922143947162	0.03270758242193643	-8.692176405975712	0.03233192052662797	-0.0049429609494287775	4.51584815979004	92.64643014015692
0.019991591168279678	0.03332163008145073	-9.631853178212278	0.03285190075396039	-0.0055752711267685485	4.51584815979004	92.64643014015692
0.015879885322029146	0.03410933714173278	-10.86014979839083	0.033498438719623755	-0.0064266230320444	4.51584815979004	92.64643014015692
0.012613841275471424	0.03491200870799421	-12.032484704278625	0.03414497668528713	-0.007277974937320259	4.51584815979004	92.64643014015692
0.010019530273437504	0.03572863622671676	-13.151679936765557	0.034791514650950504	-0.00812932684259611	4.51584815979004	92.64643014015692
