Freq(Hz)	Zmod(Ohm)	Zphz(Deg)	Zreal(Ohm)	Zimag(Ohm)	Capacity(Ah)	SOH
10019.530273437504	0.04665099829435343	50.205619812011754	0.0298582408996355	0.0358441221435133	4.54625511169434	93.27025437996659
7958.795794866109	0.04172130912054211	47.01945523602205	0.0284435018172362	0.030522693837613867	4.54625511169434	93.27025437996659
6321.89621426703	0.0369548075272499	42.99607272236048	0.027028762734836898	0.025201265531714437	4.54625511169434	93.27025437996659
5021.660659988852	0.032423542924741186	37.81614649122778	0.025614023652437604	0.019879837225815034	4.54625511169434	93.27025437996659
3988.8468474333145	0.029572744339858095	32.984921715449936	0.024806028103201764	0.01609994340157049	4.54625511169434	93.27025437996659
3168.4536749072195	0.02765880357189107	28.40827468296068	0.02432812695592003	0.013158710189265947	4.54625511169434	93.27025437996659
2516.7922143947135	0.025946678147650667	23.19037366916786	0.023850225808638294	0.010217476976961406	4.54625511169434	93.27025437996659
1999.1591168279679	0.024747235158033645	18.142151718788348	0.02351697372925855	0.007705685860738149	4.54625511169434	93.27025437996659
1587.9885322029147	0.024328888435703463	14.776384793431264	0.02352429783514099	0.006205016025804171	4.54625511169434	93.27025437996659
1261.3841275471439	0.023997252014737232	11.305301055124847	0.023531621941023432	0.004704346190870187	4.54625511169434	93.27025437996659
1001.9530273437505	0.023755957635774868	7.750397654241937	0.023538946046905873	0.003203676355936202	4.54625511169434	93.27025437996659
795.8795794866109	0.023809085257015264	5.995784280389546	0.023678839648725154	0.002486984854353396	4.54625511169434	93.27025437996659
632.189621426703	0.023885468519777926	4.260714334154695	0.02381945647364322	0.0017745702886948094	4.54625511169434	93.27025437996659
502.1660659988852	0.023983604550867833	2.538273630839975	0.02396007329856129	0.0010621557230362261	4.54625511169434	93.27025437996659
398.88468474333143	0.024136360026480713	1.4110862888920819	0.02412904052155949	0.0005943726413926648	4.54625511169434	93.27025437996659
316.8453674907219	0.02431443044335404	0.6047087724800522	0.024313076260387142	0.00025661360310972074	4.54625511169434	93.27025437996659
251.67922143947135	0.024497246393905638	-0.1897886558194467	0.024497111999214793	-8.114543517322338e-05	4.54625511169434	93.27025437996659
199.91591168279678	0.02468637805731103	-0.8324505226798006	0.02468377255575925	-0.0003586558294994642	4.54625511169434	93.27025437996659
158.79885322029148	0.024881250150563895	-1.1652349662572143	0.024876104870900327	-0.0005059797495008435	4.54625511169434	93.27025437996659
126.13841275471438	0.02507694855111141	-1.4928362747406565	0.025068437186041407	-0.0006533036695022233	4.54625511169434	93.27025437996659
100.19530273437505	0.02527345406407572	-1.8153536765012168	0.025260769501182483	-0.0008006275895036033	4.54625511169434	93.27025437996659
79.58795794866109	0.02547383967836985	-1.9423443726509895	0.02545920342153982	-0.0008634055246205839	4.54625511169434	93.27025437996659
63.2189621426703	0.02567441086510147	-2.0634860139721805	0.025657762126167834	-0.0009244544050562995	4.54625511169434	93.27025437996659
50.21660659988852	0.02587509504583051	-2.182749061051545	0.025856320830795844	-0.0009855032854920148	4.54625511169434	93.27025437996659
39.888468474333145	0.02605991352580126	-2.196102116072402	0.02604077318790309	-0.0009986114101226556	4.54625511169434	93.27025437996659
31.684536749072194	0.02623476634265648	-2.1444976461094263	0.026216392398711003	-0.0009816998780630569	4.54625511169434	93.27025437996659
25.167922143947134	0.026409640159410833	-2.0935765426078623	0.026392011609518918	-0.0009647883460034583	4.54625511169434	93.27025437996659
19.99159116827968	0.026576037270733523	-2.0183302476005234	0.02655954978203439	-0.0009359873882987225	4.54625511169434	93.27025437996659
15.879885322029146	0.026724168294118403	-1.8902416719778845	0.026709626291675656	-0.0008814955311241216	4.54625511169434	93.27025437996659
12.613841275471438	0.02687243140565807	-1.763565873792317	0.02685970280131692	-0.0008270036739495206	4.54625511169434	93.27025437996659
10.019530273437505	0.027020824431051724	-1.6382808256652643	0.027009779310958187	-0.0007725118167749195	4.54625511169434	93.27025437996659
7.958795794866109	0.02709235554912414	-1.5425501571177276	0.027082537530260343	-0.0007293079748621974	4.54625511169434	93.27025437996659
6.32189621426703	0.027162386996367683	-1.4478949759323123	0.02715371450886797	-0.0006863349847830357	4.54625511169434	93.27025437996659
5.021660659988852	0.027232492195189383	-1.3537268846358252	0.0272248914874756	-0.0006433619947038743	4.54625511169434	93.27025437996659
3.9888468474333143	0.027314037064313988	-1.3103335007657642	0.02730689447969385	-0.0006246075772706816	4.54625511169434	93.27025437996659
3.1684536749072194	0.027401288114323224	-1.2922998479814523	0.027394318577872747	-0.0006179805645546401	4.54625511169434	93.27025437996659
2.5167922143947137	0.02748854186162052	-1.2743806777711013	0.02748174267605164	-0.0006113535518385985	4.54625511169434	93.27025437996659
1.9991591168279679	0.02756200770675366	-1.3058759137566753	0.027554849230110142	-0.0006281343272315866	4.54625511169434	93.27025437996659
1.5879885322029146	0.027610653677686805	-1.4261482893077067	0.027602100876515993	-0.0006871853547587693	4.54625511169434	93.27025437996659
1.2613841275471438	0.027659420884665168	-1.545997079293292	0.027649352522921843	-0.0007462363822859523	4.54625511169434	93.27025437996659
1.0019530273437505	0.027708308687554785	-1.6654234742536018	0.027696604169327697	-0.0008052874098131354	4.54625511169434	93.27025437996659
0.7958795794866117	0.02782023254851133	-1.8446340246833695	0.02780581576382008	-0.0008955159193135707	4.54625511169434	93.27025437996659
0.632189621426703	0.027933594066943655	-2.0235076809570396	0.027916175351254784	-0.0009863220847089803	4.54625511169434	93.27025437996659
0.5021660659988852	0.028047225637070693	-2.2009336641331765	0.028026534938689486	-0.001077128250104389	4.54625511169434	93.27025437996659
0.39888468474333105	0.028188852381991196	-2.449550629148873	0.02816309457858645	-0.0012047831220950698	4.54625511169434	93.27025437996659
0.31684536749072195	0.028344983093767543	-2.731686995589905	0.02831277384877777	-0.0013508899192508485	4.54625511169434	93.27025437996659
0.25167922143947163	0.02850179357020266	-3.010725564291954	0.028462453118969094	-0.0014969967164066272	4.54625511169434	93.27025437996659
0.1999159116827968	0.028683820149810916	-3.3335427326203915	0.028635285570372638	-0.0016679204686996752	4.54625511169434	93.27025437996659
0.15879885322029147	0.028914628960806932	-3.741732694202646	0.028852993091402424	-0.0018869439866140581	4.54625511169434	93.27025437996659
0.12613841275471424	0.02914688204984877	-4.143437559335103	0.029070700612432214	-0.0021059675045284427	4.54625511169434	93.27025437996659
0.10019530273437505	0.0293805451659203	-4.538772093372072	0.029288408133462	-0.0023249910224428256	4.54625511169434	93.27025437996659
0.07958795794866116	0.02973451212104968	-5.14423916325796	0.029614745417298485	-0.00266609544942572	4.54625511169434	93.27025437996659
0.0632189621426703	0.0300919039962069	-5.735716418316302	0.029941247788581888	-0.003007385405908766	4.54625511169434	93.27025437996659
0.05021660659988852	0.030452427266520397	-6.313249135180524	0.030267750159865284	-0.0033486753623918086	4.54625511169434	93.27025437996659
0.039888468474333104	0.030911964863564362	-7.073911536379656	0.030676666524132902	-0.0038067969072937734	4.54625511169434	93.27025437996659
0.03168453674907219	0.03142720331877373	-7.910592765769056	0.031128143175511817	-0.004325252696014387	4.54625511169434	93.27025437996659
0.025167922143947162	0.031948926434170584	-8.720116119023592	0.03157961982689073	-0.004843708484735	4.54625511169434	93.27025437996659
0.019991591168279678	0.032548975706685315	-9.662760444798334	0.03208719593572533	-0.00546330271326445	4.54625511169434	93.27025437996659
0.015879885322029146	0.0333104445899716	-10.888096417883395	0.032710789211963055	-0.006292057526126849	4.54625511169434	93.27025437996659
0.012613841275471424	0.034086463944457024	-12.058155088806016	0.03333438248820078	-0.007120812338989255	4.54625511169434	93.27025437996659
0.010019530273437504	0.0348760625059652	-13.175681951931853	0.03395797576443851	-0.007949567151851654	4.54625511169434	93.27025437996659
